<Qucs Dataset 0.0.19>
<indep time 200>
  +0.00000000000000000000e+000
  +2.51256281407035188258e-002
  +5.02512562814070376516e-002
  +7.53768844221105460690e-002
  +1.00502512562814075303e-001
  +1.25628140703517576782e-001
  +1.50753768844221092138e-001
  +1.75879396984924635250e-001
  +2.01005025125628150606e-001
  +2.26130653266331665963e-001
  +2.51256281407035153563e-001
  +2.76381909547738668920e-001
  +3.01507537688442184276e-001
  +3.26633165829145755144e-001
  +3.51758793969849270500e-001
  +3.76884422110552785856e-001
  +4.02010050251256301213e-001
  +4.27135678391959816569e-001
  +4.52261306532663331925e-001
  +4.77386934673366847282e-001
  +5.02512562814070307127e-001
  +5.27638190954773822483e-001
  +5.52763819095477337839e-001
  +5.77889447236180853196e-001
  +6.03015075376884368552e-001
  +6.28140703517587994931e-001
  +6.53266331658291510287e-001
  +6.78391959798995025643e-001
  +7.03517587939698541000e-001
  +7.28643216080402056356e-001
  +7.53768844221105571712e-001
  +7.78894472361809087069e-001
  +8.04020100502512602425e-001
  +8.29145728643216117781e-001
  +8.54271356783919633138e-001
  +8.79396984924623148494e-001
  +9.04522613065326663850e-001
  +9.29648241206030179207e-001
  +9.54773869346733694563e-001
  +9.79899497487437209919e-001
  +1.00502512562814061425e+000
  +1.03015075376884412961e+000
  +1.05527638190954764497e+000
  +1.08040201005025116032e+000
  +1.10552763819095467568e+000
  +1.13065326633165819104e+000
  +1.15577889447236170639e+000
  +1.18090452261306522175e+000
  +1.20603015075376873710e+000
  +1.23115577889447225246e+000
  +1.25628140703517598986e+000
  +1.28140703517587950522e+000
  +1.30653266331658302057e+000
  +1.33165829145728653593e+000
  +1.35678391959799005129e+000
  +1.38190954773869356664e+000
  +1.40703517587939708200e+000
  +1.43216080402010059736e+000
  +1.45728643216080411271e+000
  +1.48241206030150762807e+000
  +1.50753768844221114342e+000
  +1.53266331658291465878e+000
  +1.55778894472361817414e+000
  +1.58291457286432168949e+000
  +1.60804020100502520485e+000
  +1.63316582914572872021e+000
  +1.65829145728643223556e+000
  +1.68341708542713575092e+000
  +1.70854271356783926628e+000
  +1.73366834170854278163e+000
  +1.75879396984924629699e+000
  +1.78391959798994981234e+000
  +1.80904522613065332770e+000
  +1.83417085427135684306e+000
  +1.85929648241206035841e+000
  +1.88442211055276387377e+000
  +1.90954773869346738913e+000
  +1.93467336683417090448e+000
  +1.95979899497487441984e+000
  +1.98492462311557793520e+000
  +2.01005025125628122851e+000
  +2.03517587939698474386e+000
  +2.06030150753768825922e+000
  +2.08542713567839177458e+000
  +2.11055276381909528993e+000
  +2.13567839195979880529e+000
  +2.16080402010050232064e+000
  +2.18592964824120583600e+000
  +2.21105527638190935136e+000
  +2.23618090452261286671e+000
  +2.26130653266331638207e+000
  +2.28643216080401989743e+000
  +2.31155778894472341278e+000
  +2.33668341708542692814e+000
  +2.36180904522613044350e+000
  +2.38693467336683395885e+000
  +2.41206030150753747421e+000
  +2.43718592964824098956e+000
  +2.46231155778894450492e+000
  +2.48743718592964802028e+000
  +2.51256281407035197972e+000
  +2.53768844221105549508e+000
  +2.56281407035175901044e+000
  +2.58793969849246252579e+000
  +2.61306532663316604115e+000
  +2.63819095477386955650e+000
  +2.66331658291457307186e+000
  +2.68844221105527658722e+000
  +2.71356783919598010257e+000
  +2.73869346733668361793e+000
  +2.76381909547738713329e+000
  +2.78894472361809064864e+000
  +2.81407035175879416400e+000
  +2.83919597989949767936e+000
  +2.86432160804020119471e+000
  +2.88944723618090471007e+000
  +2.91457286432160822542e+000
  +2.93969849246231174078e+000
  +2.96482412060301525614e+000
  +2.98994974874371877149e+000
  +3.01507537688442228685e+000
  +3.04020100502512580221e+000
  +3.06532663316582931756e+000
  +3.09045226130653283292e+000
  +3.11557788944723634827e+000
  +3.14070351758793986363e+000
  +3.16582914572864337899e+000
  +3.19095477386934689434e+000
  +3.21608040201005040970e+000
  +3.24120603015075392506e+000
  +3.26633165829145744041e+000
  +3.29145728643216095577e+000
  +3.31658291457286447113e+000
  +3.34170854271356798648e+000
  +3.36683417085427150184e+000
  +3.39195979899497501719e+000
  +3.41708542713567853255e+000
  +3.44221105527638204791e+000
  +3.46733668341708556326e+000
  +3.49246231155778907862e+000
  +3.51758793969849259398e+000
  +3.54271356783919610933e+000
  +3.56783919597989962469e+000
  +3.59296482412060314005e+000
  +3.61809045226130665540e+000
  +3.64321608040201017076e+000
  +3.66834170854271368611e+000
  +3.69346733668341720147e+000
  +3.71859296482412071683e+000
  +3.74371859296482423218e+000
  +3.76884422110552774754e+000
  +3.79396984924623126290e+000
  +3.81909547738693477825e+000
  +3.84422110552763829361e+000
  +3.86934673366834180896e+000
  +3.89447236180904532432e+000
  +3.91959798994974883968e+000
  +3.94472361809045235503e+000
  +3.96984924623115587039e+000
  +3.99497487437185938575e+000
  +4.02010050251256245701e+000
  +4.04522613065326641646e+000
  +4.07035175879396948773e+000
  +4.09547738693467344717e+000
  +4.12060301507537651844e+000
  +4.14572864321608047788e+000
  +4.17085427135678354915e+000
  +4.19597989949748750860e+000
  +4.22110552763819057986e+000
  +4.24623115577889453931e+000
  +4.27135678391959761058e+000
  +4.29648241206030157002e+000
  +4.32160804020100464129e+000
  +4.34673366834170860074e+000
  +4.37185929648241167200e+000
  +4.39698492462311563145e+000
  +4.42211055276381870272e+000
  +4.44723618090452266216e+000
  +4.47236180904522573343e+000
  +4.49748743718592969287e+000
  +4.52261306532663276414e+000
  +4.54773869346733672359e+000
  +4.57286432160803979485e+000
  +4.59798994974874375430e+000
  +4.62311557788944682557e+000
  +4.64824120603015078501e+000
  +4.67336683417085385628e+000
  +4.69849246231155781572e+000
  +4.72361809045226088699e+000
  +4.74874371859296484644e+000
  +4.77386934673366791770e+000
  +4.79899497487437187715e+000
  +4.82412060301507494842e+000
  +4.84924623115577890786e+000
  +4.87437185929648197913e+000
  +4.89949748743718593857e+000
  +4.92462311557788900984e+000
  +4.94974874371859296929e+000
  +4.97487437185929604055e+000
  +5.00000000000000000000e+000
</indep>
<dep Vg.Vt time>
  +0.00000000000000000000e+000
  -1.00000000000000000000e+001
  -1.00000000000000000000e+001
  -1.00000000000000000000e+001
  -1.00000000000000000000e+001
  -1.00000000000000000000e+001
  -1.00000000000000000000e+001
  -1.00000000000000000000e+001
  -1.00000000000000000000e+001
  -1.00000000000000000000e+001
  -1.00000000000000000000e+001
  -1.00000000000000000000e+001
  -1.00000000000000000000e+001
  -1.00000000000000000000e+001
  -1.00000000000000000000e+001
  -1.00000000000000000000e+001
  -1.00000000000000000000e+001
  -1.00000000000000000000e+001
  -1.00000000000000000000e+001
  -1.00000000000000000000e+001
  -1.00000000000000000000e+001
  -1.00000000000000000000e+001
  -1.00000000000000000000e+001
  -1.00000000000000000000e+001
  -1.00000000000000000000e+001
  -1.00000000000000000000e+001
  -1.00000000000000000000e+001
  -1.00000000000000000000e+001
  -1.00000000000000000000e+001
  -1.00000000000000000000e+001
  -1.00000000000000000000e+001
  -1.00000000000000000000e+001
  -1.00000000000000000000e+001
  -1.00000000000000000000e+001
  -1.00000000000000000000e+001
  -1.00000000000000000000e+001
  -1.00000000000000000000e+001
  -1.00000000000000000000e+001
  -1.00000000000000000000e+001
  -1.00000000000000000000e+001
  +0.00000000000000000000e+000
  +0.00000000000000000000e+000
  +0.00000000000000000000e+000
  +0.00000000000000000000e+000
  +0.00000000000000000000e+000
  +0.00000000000000000000e+000
  +0.00000000000000000000e+000
  +0.00000000000000000000e+000
  +0.00000000000000000000e+000
  +0.00000000000000000000e+000
  +0.00000000000000000000e+000
  +0.00000000000000000000e+000
  +0.00000000000000000000e+000
  +0.00000000000000000000e+000
  +0.00000000000000000000e+000
  +0.00000000000000000000e+000
  +0.00000000000000000000e+000
  +0.00000000000000000000e+000
  +0.00000000000000000000e+000
  +0.00000000000000000000e+000
  +0.00000000000000000000e+000
  +0.00000000000000000000e+000
  +0.00000000000000000000e+000
  +0.00000000000000000000e+000
  +0.00000000000000000000e+000
  +0.00000000000000000000e+000
  +0.00000000000000000000e+000
  +0.00000000000000000000e+000
  +0.00000000000000000000e+000
  +0.00000000000000000000e+000
  +0.00000000000000000000e+000
  +0.00000000000000000000e+000
  +0.00000000000000000000e+000
  +0.00000000000000000000e+000
  +0.00000000000000000000e+000
  +0.00000000000000000000e+000
  +0.00000000000000000000e+000
  +0.00000000000000000000e+000
  +0.00000000000000000000e+000
  +0.00000000000000000000e+000
  -1.00000000000000000000e+001
  -1.00000000000000000000e+001
  -1.00000000000000000000e+001
  -1.00000000000000000000e+001
  -1.00000000000000000000e+001
  -1.00000000000000000000e+001
  -1.00000000000000000000e+001
  -1.00000000000000000000e+001
  -1.00000000000000000000e+001
  -1.00000000000000000000e+001
  -1.00000000000000000000e+001
  -1.00000000000000000000e+001
  -1.00000000000000000000e+001
  -1.00000000000000000000e+001
  -1.00000000000000000000e+001
  -1.00000000000000000000e+001
  -1.00000000000000000000e+001
  -1.00000000000000000000e+001
  -1.00000000000000000000e+001
  -1.00000000000000000000e+001
  -1.00000000000000000000e+001
  -1.00000000000000000000e+001
  -1.00000000000000000000e+001
  -1.00000000000000000000e+001
  -1.00000000000000000000e+001
  -1.00000000000000000000e+001
  -1.00000000000000000000e+001
  -1.00000000000000000000e+001
  -1.00000000000000000000e+001
  -1.00000000000000000000e+001
  -1.00000000000000000000e+001
  -1.00000000000000000000e+001
  -1.00000000000000000000e+001
  -1.00000000000000000000e+001
  -1.00000000000000000000e+001
  -1.00000000000000000000e+001
  -1.00000000000000000000e+001
  -1.00000000000000000000e+001
  -1.00000000000000000000e+001
  -1.00000000000000000000e+001
  +0.00000000000000000000e+000
  +0.00000000000000000000e+000
  +0.00000000000000000000e+000
  +0.00000000000000000000e+000
  +0.00000000000000000000e+000
  +0.00000000000000000000e+000
  +0.00000000000000000000e+000
  +0.00000000000000000000e+000
  +0.00000000000000000000e+000
  +0.00000000000000000000e+000
  +0.00000000000000000000e+000
  +0.00000000000000000000e+000
  +0.00000000000000000000e+000
  +0.00000000000000000000e+000
  +0.00000000000000000000e+000
  +0.00000000000000000000e+000
  +0.00000000000000000000e+000
  +0.00000000000000000000e+000
  +0.00000000000000000000e+000
  +0.00000000000000000000e+000
  +0.00000000000000000000e+000
  +0.00000000000000000000e+000
  +0.00000000000000000000e+000
  +0.00000000000000000000e+000
  +0.00000000000000000000e+000
  +0.00000000000000000000e+000
  +0.00000000000000000000e+000
  +0.00000000000000000000e+000
  +0.00000000000000000000e+000
  +0.00000000000000000000e+000
  +0.00000000000000000000e+000
  +0.00000000000000000000e+000
  +0.00000000000000000000e+000
  +0.00000000000000000000e+000
  +0.00000000000000000000e+000
  +0.00000000000000000000e+000
  +0.00000000000000000000e+000
  +0.00000000000000000000e+000
  +0.00000000000000000000e+000
  +0.00000000000000000000e+000
  -1.00000000000000000000e+001
  -1.00000000000000000000e+001
  -1.00000000000000000000e+001
  -1.00000000000000000000e+001
  -1.00000000000000000000e+001
  -1.00000000000000000000e+001
  -1.00000000000000000000e+001
  -1.00000000000000000000e+001
  -1.00000000000000000000e+001
  -1.00000000000000000000e+001
  -1.00000000000000000000e+001
  -1.00000000000000000000e+001
  -1.00000000000000000000e+001
  -1.00000000000000000000e+001
  -1.00000000000000000000e+001
  -1.00000000000000000000e+001
  -1.00000000000000000000e+001
  -1.00000000000000000000e+001
  -1.00000000000000000000e+001
  -1.00000000000000000000e+001
  -1.00000000000000000000e+001
  -1.00000000000000000000e+001
  -1.00000000000000000000e+001
  -1.00000000000000000000e+001
  -1.00000000000000000000e+001
  -1.00000000000000000000e+001
  -1.00000000000000000000e+001
  -1.00000000000000000000e+001
  -1.00000000000000000000e+001
  -1.00000000000000000000e+001
  -1.00000000000000000000e+001
  -1.00000000000000000000e+001
  -1.00000000000000000000e+001
  -1.00000000000000000000e+001
  -1.00000000000000000000e+001
  -1.00000000000000000000e+001
  -1.00000000000000000000e+001
  -1.00000000000000000000e+001
  -1.00000000000000000000e+001
  -1.00000000001574509412e+001
</dep>
<dep VR1.Vt time>
  +0.00000000000000000000e+000
  +1.00000000006099831751e+001
  +1.00000000000147490908e+001
  +9.99999999999807798190e+000
  +1.00000000000002504663e+001
  +9.99999999999996802558e+000
  +1.00000000000000035527e+001
  +1.00000000000000000000e+001
  +1.00000000000000000000e+001
  +1.00000000000000000000e+001
  +1.00000000000000000000e+001
  +1.00000000000000000000e+001
  +1.00000000000000000000e+001
  +1.00000000000000000000e+001
  +1.00000000000000000000e+001
  +1.00000000000000000000e+001
  +1.00000000000000000000e+001
  +1.00000000000000000000e+001
  +1.00000000000000000000e+001
  +1.00000000000000000000e+001
  +1.00000000000000000000e+001
  +1.00000000000000000000e+001
  +1.00000000000000000000e+001
  +1.00000000000000000000e+001
  +1.00000000000000000000e+001
  +1.00000000000000000000e+001
  +1.00000000000000000000e+001
  +1.00000000000000000000e+001
  +1.00000000000000000000e+001
  +1.00000000000000000000e+001
  +1.00000000000000000000e+001
  +1.00000000000000000000e+001
  +1.00000000000000000000e+001
  +1.00000000000000000000e+001
  +1.00000000000000000000e+001
  +1.00000000000000000000e+001
  +1.00000000000000000000e+001
  +1.00000000000000000000e+001
  +1.00000000000000000000e+001
  +1.00000000000000000000e+001
  +1.11311288517463413683e+000
  -1.53349224453641160701e-010
  -3.81215614044206371508e-012
  +8.70316552143903613655e-013
  -1.98693566850547946064e-013
  +4.53618093445905657304e-014
  -1.03561166052382901924e-014
  +2.36430496690674472323e-015
  -5.39771633482035383524e-016
  +1.23230048741574446641e-016
  -2.81334623216292120300e-017
  +6.42287908091598772237e-018
  -1.46634549336475705742e-018
  +3.34767178211377896908e-019
  -7.64274614098267832628e-020
  +1.74484156086005348027e-020
  -3.98347925777513879490e-021
  +9.09429678492022326134e-022
  -2.07623106988144824616e-022
  +4.74004264154754705374e-023
  -1.08215335805431128101e-023
  +2.47055982172745122174e-024
  -5.64029653219229218938e-025
  +1.28768162953513602889e-025
  -2.93978156924628426349e-026
  +6.71153138839147208888e-027
  -1.53224491399586347537e-027
  +3.49812038505398811256e-028
  -7.98622081663068788636e-029
  +1.82325694691610805745e-029
  -4.16250185263513019379e-030
  +9.50300598195834674174e-031
  -2.16953951950714225703e-031
  +4.95306615153082360619e-032
  -1.13078669832267206804e-032
  +2.58158990408051275220e-033
  -5.89377859037095896541e-034
  +1.34555167020949718973e-034
  -3.07189907025267634167e-035
  +7.01315609555894448275e-036
  +9.99956957385026434793e+000
  +9.99999999969999109339e+000
  +1.00000000000577244919e+001
  +1.00000000000303685965e+001
  +1.00000000000159765534e+001
  +1.00000000000084057206e+001
  +1.00000000000044213522e+001
  +1.00000000000023252511e+001
  +1.00000000000012239099e+001
  +1.00000000000006430412e+001
  +1.00000000000003392842e+001
  +1.00000000000001776357e+001
  +1.00000000000000941469e+001
  +1.00000000000000497380e+001
  +1.00000000000000266454e+001
  +1.00000000000000142109e+001
  +1.00000000000000071054e+001
  +1.00000000000000035527e+001
  +1.00000000000000017764e+001
  +1.00000000000000017764e+001
  +1.00000000000000000000e+001
  +1.00000000000000000000e+001
  +1.00000000000000000000e+001
  +1.00000000000000000000e+001
  +1.00000000000000000000e+001
  +1.00000000000000000000e+001
  +1.00000000000000000000e+001
  +1.00000000000000000000e+001
  +1.00000000000000000000e+001
  +1.00000000000000000000e+001
  +1.00000000000000000000e+001
  +1.00000000000000000000e+001
  +1.00000000000000000000e+001
  +1.00000000000000000000e+001
  +1.00000000000000000000e+001
  +1.00000000000000000000e+001
  +1.00000000000000000000e+001
  +1.00000000000000000000e+001
  +1.00000000000000000000e+001
  +1.00000000000000000000e+001
  +2.31193846177277178598e-006
  -1.85147740166087969156e-011
  +5.53922507451070853159e-013
  +2.82333191288204267587e-013
  +1.43904661447653583129e-013
  +7.33479173733583881212e-014
  +3.73852864034289531038e-014
  +1.90552055125435777417e-014
  +9.71240003906905321702e-015
  +4.95039082400937392769e-015
  +2.52320427616830110615e-015
  +1.28607215987800642438e-015
  +6.55508400978533307970e-016
  +3.34111317512847072348e-016
  +1.70295868555658969311e-016
  +8.67994627150310567236e-017
  +4.42415120902104047238e-017
  +2.25498099965690880372e-017
  +1.14935929369802185810e-017
  +5.85826127231674010277e-018
  +2.98594402315269714480e-018
  +1.52192968100164679720e-018
  +7.75724506539191523586e-019
  +3.95385225452358623120e-019
  +2.01527056562205208810e-019
  +1.02717936615261568516e-019
  +5.23551263164513581632e-020
  +2.66853028977639898280e-020
  +1.36014453759736000971e-020
  +6.93262943367583310382e-021
  +3.53354732060806815944e-021
  +1.80104198362671263126e-021
  +9.17987487493968293934e-022
  +4.67896381570496642475e-022
  +2.38485847431773723204e-022
  +1.21555758209431618944e-022
  +6.19567262082370843882e-023
  +3.15792191088863549176e-023
  +1.60958646551997764595e-023
  +8.20402993833389172562e-024
  +1.00000000035483758154e+001
  +9.99999999999931077355e+000
  +1.00000000000001598721e+001
  +9.99999999999996269651e+000
  +1.00000000000000088818e+001
  +9.99999999999999822364e+000
  +1.00000000000000000000e+001
  +1.00000000000000000000e+001
  +1.00000000000000000000e+001
  +1.00000000000000000000e+001
  +1.00000000000000000000e+001
  +1.00000000000000000000e+001
  +1.00000000000000000000e+001
  +1.00000000000000000000e+001
  +1.00000000000000000000e+001
  +1.00000000000000000000e+001
  +1.00000000000000000000e+001
  +1.00000000000000000000e+001
  +1.00000000000000000000e+001
  +1.00000000000000000000e+001
  +1.00000000000000000000e+001
  +1.00000000000000000000e+001
  +1.00000000000000000000e+001
  +1.00000000000000000000e+001
  +1.00000000000000000000e+001
  +1.00000000000000000000e+001
  +1.00000000000000000000e+001
  +1.00000000000000000000e+001
  +1.00000000000000000000e+001
  +1.00000000000000000000e+001
  +1.00000000000000000000e+001
  +1.00000000000000000000e+001
  +1.00000000000000000000e+001
  +1.00000000000000000000e+001
  +1.00000000000000000000e+001
  +1.00000000000000000000e+001
  +1.00000000000000000000e+001
  +1.00000000000000000000e+001
  +1.00000000000000000000e+001
  +1.00000000001255404669e+001
</dep>
<dep VL.Vt time>
  +0.00000000000000000000e+000
  -6.09983009415560051281e-010
  -1.47483125972208695131e-011
  +1.92212391836310558801e-012
  -2.50955940056529769322e-013
  +3.27377014386343034857e-014
  -3.85412188275147116201e-015
  +3.66894015169094700468e-016
  -5.92408067046079622742e-016
  +2.95770352654045609597e-016
  -6.63531729561128713613e-016
  +4.02455846426619245904e-016
  -4.85722573273505986435e-016
  +2.95770352654045609597e-016
  -4.85722573273505986435e-016
  +4.02455846426619245904e-016
  -4.85722573273505986435e-016
  +4.02455846426619245904e-016
  -4.85722573273505986435e-016
  +4.02455846426619245904e-016
  -3.79037079500932350129e-016
  +4.02455846426619245904e-016
  -4.85722573273505986435e-016
  +4.02455846426619245904e-016
  -4.85722573273505986435e-016
  +1.89084858881471973291e-016
  -4.85722573273505986435e-016
  +4.02455846426619245904e-016
  -4.85722573273505986435e-016
  +4.02455846426619245904e-016
  -4.85722573273505986435e-016
  +4.02455846426619245904e-016
  -4.85722573273505986435e-016
  +4.02455846426619245904e-016
  -4.85722573273505986435e-016
  +4.02455846426619245904e-016
  -4.85722573273505986435e-016
  +4.02455846426619245904e-016
  -4.85722573273505986435e-016
  +4.02455846426619245904e-016
  -1.11311288517463413683e+000
