<Qucs Dataset 0.0.19>
<indep time 11>
  +0.00000000000000000000e+000
  +5.00000000000000000000e-001
  +1.00000000000000000000e+000
  +1.50000000000000000000e+000
  +2.00000000000000000000e+000
  +2.50000000000000000000e+000
  +3.00000000000000000000e+000
  +3.50000000000000000000e+000
  +4.00000000000000000000e+000
  +4.50000000000000000000e+000
  +5.00000000000000000000e+000
</indep>
<dep VL.Vt time>
  +3.99999960000004017857e+000
  -2.74522143298844278902e-011
  -1.11135544668926333767e-012
  -4.52068937839555928804e-014
  -2.45571792067966754303e-017
  -1.04083408558608425665e-016
  -9.16692936836493998953e-017
  -1.04083408558608425665e-016
  -1.91903784529934284819e-016
  +1.94343239418026669796e-017
  +1.94343239418026669796e-017
</dep>
<dep VR1.Vt time>
  +1.00000039999995982143e+000
  +5.00000000002745181860e+000
  +5.00000000000111111120e+000
  +5.00000000000004529710e+000
  +5.00000000000000000000e+000
  +5.00000000000000000000e+000
  +5.00000000000000000000e+000
  +5.00000000000000000000e+000
  +5.00000000000000000000e+000
  +5.00000000000000000000e+000
  +5.00000000000000000000e+000
</dep>
<dep G.It time>
  -1.00000039999996004174e-003
  -5.00000000002745210309e-003
  -5.00000000000111119447e-003
  -5.00000000000004520689e-003
  -5.00000000000000010408e-003
  -5.00000000000000010408e-003
  -5.00000000000000010408e-003
  -5.00000000000000010408e-003
  -5.00000000000000010408e-003
  -5.00000000000000010408e-003
  -5.00000000000000010408e-003
</dep>
<dep _net0.Vt time>
  +5.00000000000000000000e+000
  +5.00000000000000000000e+000
  +5.00000000000000000000e+000
  +5.00000000000000000000e+000
  +5.00000000000000000000e+000
  +5.00000000000000000000e+000
  +5.00000000000000000000e+000
  +5.00000000000000000000e+000
  +5.00000000000000000000e+000
  +5.00000000000000000000e+000
  +5.00000000000000000000e+000
</dep>
<dep _net1.Vt time>
  +3.99999960000004017857e+000
  -2.74522143298844278902e-011
  -1.11135544668926333767e-012
  -4.52068937839555928804e-014
  -2.45571792067966754303e-017
  -1.04083408558608425665e-016
  -9.16692936836493998953e-017
  -1.04083408558608425665e-016
  -1.91903784529934284819e-016
  +1.94343239418026669796e-017
  +1.94343239418026669796e-017
</dep>
