<Qucs Dataset 0.0.19>
<indep time 200>
  +0.00000000000000000000e+000
  +5.02512562814070376516e-002
  +1.00502512562814075303e-001
  +1.50753768844221092138e-001
  +2.01005025125628150606e-001
  +2.51256281407035153563e-001
  +3.01507537688442184276e-001
  +3.51758793969849270500e-001
  +4.02010050251256301213e-001
  +4.52261306532663331925e-001
  +5.02512562814070307127e-001
  +5.52763819095477337839e-001
  +6.03015075376884368552e-001
  +6.53266331658291510287e-001
  +7.03517587939698541000e-001
  +7.53768844221105571712e-001
  +8.04020100502512602425e-001
  +8.54271356783919633138e-001
  +9.04522613065326663850e-001
  +9.54773869346733694563e-001
  +1.00502512562814061425e+000
  +1.05527638190954764497e+000
  +1.10552763819095467568e+000
  +1.15577889447236170639e+000
  +1.20603015075376873710e+000
  +1.25628140703517598986e+000
  +1.30653266331658302057e+000
  +1.35678391959799005129e+000
  +1.40703517587939708200e+000
  +1.45728643216080411271e+000
  +1.50753768844221114342e+000
  +1.55778894472361817414e+000
  +1.60804020100502520485e+000
  +1.65829145728643223556e+000
  +1.70854271356783926628e+000
  +1.75879396984924629699e+000
  +1.80904522613065332770e+000
  +1.85929648241206035841e+000
  +1.90954773869346738913e+000
  +1.95979899497487441984e+000
  +2.01005025125628122851e+000
  +2.06030150753768825922e+000
  +2.11055276381909528993e+000
  +2.16080402010050232064e+000
  +2.21105527638190935136e+000
  +2.26130653266331638207e+000
  +2.31155778894472341278e+000
  +2.36180904522613044350e+000
  +2.41206030150753747421e+000
  +2.46231155778894450492e+000
  +2.51256281407035197972e+000
  +2.56281407035175901044e+000
  +2.61306532663316604115e+000
  +2.66331658291457307186e+000
  +2.71356783919598010257e+000
  +2.76381909547738713329e+000
  +2.81407035175879416400e+000
  +2.86432160804020119471e+000
  +2.91457286432160822542e+000
  +2.96482412060301525614e+000
  +3.01507537688442228685e+000
  +3.06532663316582931756e+000
  +3.11557788944723634827e+000
  +3.16582914572864337899e+000
  +3.21608040201005040970e+000
  +3.26633165829145744041e+000
  +3.31658291457286447113e+000
  +3.36683417085427150184e+000
  +3.41708542713567853255e+000
  +3.46733668341708556326e+000
  +3.51758793969849259398e+000
  +3.56783919597989962469e+000
  +3.61809045226130665540e+000
  +3.66834170854271368611e+000
  +3.71859296482412071683e+000
  +3.76884422110552774754e+000
  +3.81909547738693477825e+000
  +3.86934673366834180896e+000
  +3.91959798994974883968e+000
  +3.96984924623115587039e+000
  +4.02010050251256245701e+000
  +4.07035175879396948773e+000
  +4.12060301507537651844e+000
  +4.17085427135678354915e+000
  +4.22110552763819057986e+000
  +4.27135678391959761058e+000
  +4.32160804020100464129e+000
  +4.37185929648241167200e+000
  +4.42211055276381870272e+000
  +4.47236180904522573343e+000
  +4.52261306532663276414e+000
  +4.57286432160803979485e+000
  +4.62311557788944682557e+000
  +4.67336683417085385628e+000
  +4.72361809045226088699e+000
  +4.77386934673366791770e+000
  +4.82412060301507494842e+000
  +4.87437185929648197913e+000
  +4.92462311557788900984e+000
  +4.97487437185929604055e+000
  +5.02512562814070395945e+000
  +5.07537688442211099016e+000
  +5.12562814070351802087e+000
  +5.17587939698492505158e+000
  +5.22613065326633208230e+000
  +5.27638190954773911301e+000
  +5.32663316582914614372e+000
  +5.37688442211055317443e+000
  +5.42713567839196020515e+000
  +5.47738693467336723586e+000
  +5.52763819095477426657e+000
  +5.57788944723618129728e+000
  +5.62814070351758832800e+000
  +5.67839195979899535871e+000
  +5.72864321608040238942e+000
  +5.77889447236180942014e+000
  +5.82914572864321645085e+000
  +5.87939698492462348156e+000
  +5.92964824120603051227e+000
  +5.97989949748743754299e+000
  +6.03015075376884457370e+000
  +6.08040201005025160441e+000
  +6.13065326633165863512e+000
  +6.18090452261306566584e+000
  +6.23115577889447269655e+000
  +6.28140703517587972726e+000
  +6.33165829145728675797e+000
  +6.38190954773869378869e+000
  +6.43216080402010081940e+000
  +6.48241206030150785011e+000
  +6.53266331658291488083e+000
  +6.58291457286432191154e+000
  +6.63316582914572894225e+000
  +6.68341708542713597296e+000
  +6.73366834170854300368e+000
  +6.78391959798995003439e+000
  +6.83417085427135706510e+000
  +6.88442211055276409581e+000
  +6.93467336683417112653e+000
  +6.98492462311557815724e+000
  +7.03517587939698518795e+000
  +7.08542713567839221867e+000
  +7.13567839195979924938e+000
  +7.18592964824120628009e+000
  +7.23618090452261331080e+000
  +7.28643216080402034152e+000
  +7.33668341708542737223e+000
  +7.38693467336683440294e+000
  +7.43718592964824143365e+000
  +7.48743718592964846437e+000
  +7.53768844221105549508e+000
  +7.58793969849246252579e+000
  +7.63819095477386955650e+000
  +7.68844221105527658722e+000
  +7.73869346733668361793e+000
  +7.78894472361809064864e+000
  +7.83919597989949767936e+000
  +7.88944723618090471007e+000
  +7.93969849246231174078e+000
  +7.98994974874371877149e+000
  +8.04020100502512491403e+000
  +8.09045226130653283292e+000
  +8.14070351758793897545e+000
  +8.19095477386934689434e+000
  +8.24120603015075303688e+000
  +8.29145728643216095577e+000
  +8.34170854271356709830e+000
  +8.39195979899497501719e+000
  +8.44221105527638115973e+000
  +8.49246231155778907862e+000
  +8.54271356783919522115e+000
  +8.59296482412060314005e+000
  +8.64321608040200928258e+000
  +8.69346733668341720147e+000
  +8.74371859296482334400e+000
  +8.79396984924623126290e+000
  +8.84422110552763740543e+000
  +8.89447236180904532432e+000
  +8.94472361809045146686e+000
  +8.99497487437185938575e+000
  +9.04522613065326552828e+000
  +9.09547738693467344717e+000
  +9.14572864321607958971e+000
  +9.19597989949748750860e+000
  +9.24623115577889365113e+000
  +9.29648241206030157002e+000
  +9.34673366834170771256e+000
  +9.39698492462311563145e+000
  +9.44723618090452177398e+000
  +9.49748743718592969287e+000
  +9.54773869346733583541e+000
  +9.59798994974874375430e+000
  +9.64824120603014989683e+000
  +9.69849246231155781572e+000
  +9.74874371859296395826e+000
  +9.79899497487437187715e+000
  +9.84924623115577801968e+000
  +9.89949748743718593857e+000
  +9.94974874371859208111e+000
  +1.00000000000000000000e+001
</indep>
<dep VC.Vt time>
  +9.99999999800000197875e-010
  +4.78090554879229467922e-001
  +9.10481796243700847171e-001
  +1.30156040287028185176e+000
  +1.65526551734485560807e+000
  +1.97514357997233025444e+000
  +2.26442968515716680500e+000
  +2.52604953481366845125e+000
  +2.76264902752196039870e+000
  +2.97662101788630195642e+000
  +3.17012951672710885376e+000
  +3.34513157685592332768e+000
  +3.50339708577563113678e+000
  +3.64652666547987402978e+000
  +3.77596786038170550981e+000
  +3.89302977708848318983e+000
  +3.99889632408271511466e+000
  +4.09463818520870059814e+000
  +4.18122364805908297569e+000
  +4.25952839677448480415e+000
  +4.33034436829591040663e+000
  +4.39438776163786304352e+000
  +4.45230628118413829242e+000
  +4.50468568726153062443e+000
  +4.55205572024084936800e+000
  +4.59489545807877508565e+000
  +4.63363816148418372620e+000
  +4.66867565571064435659e+000
  +4.70036229329045607273e+000
  +4.72901853778741720902e+000
  +4.75493420481271300559e+000
  +4.77837139308200153920e+000
  +4.79956713515701238748e+000
  +4.81873579468000912129e+000
  +4.83607123434559227348e+000
  +4.85174877653567371283e+000
  +4.86592697644656091427e+000
  +4.87874922564071411557e+000
  +4.89034520224072632999e+000
  +4.90083218243210794185e+000
  +4.91031622653878141449e+000
  +4.91889325166668278655e+000
  +4.92665000176371226104e+000
  +4.93366492490670527360e+000
  +4.94000896668793565425e+000
  +4.94574628772504532037e+000
  +4.95093491255097806203e+000
  +4.95562731644648035711e+000
  +4.95987095615010442629e+000
  +4.96370874981305920670e+000
  +4.96717951105294996950e+000
  +4.97031834149623819030e+000
  +4.97315698577936160518e+000
  +4.97572415259888067851e+000
  +4.97804580505756888442e+000
  +4.98014542324285258701e+000
  +4.98204424169325399419e+000
  +4.98376146415439436055e+000
  +4.98531445779653026307e+000
  +4.98671892885784728833e+000
  +4.98798908148986797073e+000
  +4.98913776141149423182e+000
  +4.99017658582446532733e+000
  +4.99111606090422110782e+000
  +4.99196568805435614280e+000
  +4.99273405999928598931e+000
  +4.99342894768697576069e+000
  +4.99405737888060663465e+000
  +4.99462570923401827372e+000
  +4.99513968656977702665e+000
  +4.99560450900991082079e+000
  +4.99602487754723423308e+000
  +4.99640504358895931603e+000
  +4.99674885195340490185e+000
  +4.99705977975465298613e+000
  +4.99734097156842960175e+000
  +4.99759527123483682232e+000
  +4.99782525061960747337e+000
  +4.99803323562472545660e+000
  +4.99822132971149724057e+000
  +4.99839143517394290939e+000
  +4.99854527237771240067e+000
  +4.99868439715903178922e+000
  +4.99881021655968549311e+000
  +4.99892400305717998776e+000
  +4.99902690743396949102e+000
  +4.99911997041591682489e+000
  +4.99920413319770773342e+000
  +4.99928024696163841867e+000
  +4.99934908148607526357e+000
  +4.99941133293061845677e+000
  +4.99946763087673673454e+000
  +4.99951854469504652911e+000
  +4.99956458930366398619e+000
  +4.99960623037583751227e+000
  +4.99964388904953782600e+000
  +4.99967794618665983819e+000
  +4.99970874622486949335e+000
  +4.99973660066108926969e+000
  +4.99976179120182173676e+000
  +4.99978457261220032848e+000
  +4.99980517529256385245e+000
  +4.99982380760860856128e+000
  +4.99984065799870514013e+000
  +4.99985589687967824091e+000
  +4.99986967837031315298e+000
  +4.99988214185004142820e+000
  +4.99989341336856529807e+000
  +4.99990360692065394232e+000
  +4.99991282559903726934e+000
  +4.99992116263704122758e+000
  +4.99992870235149577951e+000
  +4.99993552099548477230e+000
  +4.99994168752952639068e+000
  +4.99994726431900904373e+000
  +4.99995230776492416425e+000
  +4.99995686887428636425e+000
  +4.99996099377597857938e+000
  +4.99996472418729354104e+000
  +4.99996809783583984199e+000
  +4.99997114884109095101e+000
  +4.99997390805945407521e+000
  +4.99997640339635829321e+000
  +4.99997866008845015529e+000
  +4.99998070095884106223e+000
  +4.99998254664791730306e+000
  +4.99998421582210195169e+000
  +4.99998572536262653188e+000
  +4.99998709053626644305e+000
  +4.99998832514973567953e+000
  +4.99998944168932801801e+000
  +4.99999045144719733713e+000
  +4.99999136463554982868e+000
  +4.99999219048993648329e+000
  +4.99999293736265926213e+000
  +4.99999361280722975920e+000
  +4.99999422365477386165e+000
  +4.99999477608311426735e+000
  +4.99999527567924673122e+000
  +4.99999572749585041720e+000
  +4.99999613610237769734e+000
  +4.99999650563128827940e+000
  +4.99999683981981579706e+000
  +4.99999714204778644699e+000
  +4.99999741537178810091e+000
  +4.99999766255609312537e+000
  +4.99999788610060136307e+000
  +4.99999808826613634238e+000
  +4.99999827109730698993e+000
  +4.99999843644317998326e+000
  +4.99999858597598390020e+000
  +4.99999872120802457687e+000
  +4.99999884350697065827e+000
  +4.99999895410969585896e+000
  +4.99999905413478451521e+000
  +4.99999914459384342535e+000
  +4.99999922640173011246e+000
  +4.99999930038581297254e+000
  +4.99999936729433436255e+000
  +4.99999942780396811060e+000
  +4.99999948252668602322e+000
  +4.99999953201592362007e+000
  +4.99999957677219253327e+000
  +4.99999961724813868358e+000
  +4.99999965385311373467e+000
  +4.99999968695732288637e+000
  +4.99999971689556943488e+000
  +4.99999974397063517983e+000
  +4.99999976845633664624e+000
  +4.99999979060031840561e+000
  +4.99999981062653109376e+000
  +4.99999982873751047663e+000
  +4.99999984511642292517e+000
  +4.99999985992891815556e+000
  +4.99999987332479900459e+000
  +4.99999988543954732023e+000
  +4.99999989639568731548e+000
  +4.99999990630402102454e+000
  +4.99999991526475540127e+000
  +4.99999992336852194796e+000
  +4.99999993069727199924e+000
  +4.99999993732512759692e+000
  +4.99999994331912134271e+000
  +4.99999994873987230193e+000
  +4.99999995364220239935e+000
  +4.99999995807569241890e+000
  +4.99999996208517849539e+000
  +4.99999996571121219091e+000
  +4.99999996899046461607e+000
  +4.99999997195610212941e+000
  +4.99999997463811851617e+000
  +4.99999997706363696892e+000
  +4.99999997925718631109e+000
  +4.99999998124095235141e+000
  +4.99999998303499726404e+000
  +4.99999998465746653409e+000
  +4.99999998612477014603e+000
  +4.99999998745174778492e+000
  +4.99999998865181893848e+000
  +4.99999998973711701211e+000
</dep>
<dep E.It time>
  -4.99999999950000075660e-004
  -4.76095472256038529813e-004
  -4.54475910187814957468e-004
  -4.34921979856485940111e-004
  -4.17236724132757257674e-004
  -4.01242821001383527350e-004
  -3.86778515742141704246e-004
  -3.73697523259316610050e-004
  -3.61867548623901987611e-004
  -3.51168949105684895934e-004
  -3.41493524163644568067e-004
  -3.32743421157203874208e-004
  -3.24830145711218446370e-004
  -3.17673666726006305797e-004
  -3.11201606980914739602e-004
  -3.05348511145575834784e-004
  -3.00055183795864242619e-004
  -2.95268090739565010772e-004
  -2.90938817597045863879e-004
  -2.87023580161275757017e-004
  -2.83482781585204482618e-004
  -2.80280611918106836028e-004
  -2.77384685940793083818e-004
  -2.74765715636923475544e-004
  -2.72397213987957522233e-004
  -2.70255227096061255519e-004
  -2.68318091925790847083e-004
  -2.66566217214467802727e-004
  -2.64981885335477201047e-004
  -2.63549073110629170774e-004
  -2.62253289759364341047e-004
  -2.61081430345899950362e-004
  -2.60021643242149414887e-004
  -2.59063210265999567788e-004
  -2.58196438282720425097e-004
  -2.57412561173216342982e-004
  -2.56703651177671949776e-004
  -2.56062538717964323972e-004
  -2.55482739887963686016e-004
  -2.54958390878394600566e-004
  -2.54484188673060923898e-004
  -2.54055337416665889295e-004
  -2.53667499911814373417e-004
  -2.53316753754664761647e-004
  -2.52999551665603235329e-004
  -2.52712685613747729992e-004
  -2.52453254372451084929e-004
  -2.52218634177675993420e-004
  -2.52006452192494805834e-004
  -2.51814562509347042874e-004
  -2.51641024447352493199e-004
  -2.51484082925188098725e-004
  -2.51342150711031918093e-004
  -2.51213792370055984116e-004
  -2.51097709747121573473e-004
  -2.50992728837857374639e-004
  -2.50897787915337338194e-004
  -2.50811926792280271044e-004
  -2.50734277110173473403e-004
  -2.50664053557107639487e-004
  -2.50600545925506589407e-004
  -2.50543111929425299077e-004
  -2.50491170708776742567e-004
  -2.50444196954788961002e-004
  -2.50401715597282198932e-004
  -2.50363297000035704785e-004
  -2.50328552615651229833e-004
  -2.50297131055969698452e-004
  -2.50268714538299076947e-004
  -2.50243015671511163153e-004
  -2.50219774549504487757e-004
  -2.50198756122638275422e-004
  -2.50179747820552069500e-004
  -2.50162557402329758724e-004
  -2.50147011012267367087e-004
  -2.50132951421578534745e-004
  -2.50120236438258183777e-004
  -2.50108737469019633270e-004
  -2.50098338218763735757e-004
  -2.50088933514425139013e-004
  -2.50080428241302842735e-004
  -2.50072736381114397747e-004
  -2.50065780142048400044e-004
  -2.50059489172015732197e-004
  -2.50053799847141020301e-004
  -2.50048654628301546612e-004
  -2.50044001479204176450e-004
  -2.50039793340114599451e-004
  -2.50035987651918108817e-004
  -2.50032545925696271950e-004
  -2.50029433353469077075e-004
  -2.50026618456163161452e-004
  -2.50024072765247661228e-004
  -2.50021770534816789328e-004
  -2.50019688481208112764e-004
  -2.50017805547523110695e-004
  -2.50016102690667045300e-004
  -2.50014562688756546236e-004
  -2.50013169966945567393e-004
  -2.50011910439908917412e-004
  -2.50010771369390020439e-004
  -2.50009741235371839817e-004
  -2.50008809619569596829e-004
  -2.50007967100064750973e-004
  -2.50007205156016097322e-004
  -2.50006516081484342091e-004
  -2.50005892907497915753e-004
  -2.50005329331571754525e-004
  -2.50004819653967325695e-004
  -2.50004358720048145987e-004
  -2.50003941868147925871e-004
  -2.50003564882425230714e-004
  -2.50003223950225766676e-004
  -2.50002915623523706227e-004
  -2.50002636784049572100e-004
  -2.50002384611753777650e-004
  -2.50002156556285712926e-004
  -2.50001950311201062878e-004
  -2.50001763790635360245e-004
  -2.50001595108208013365e-004
  -2.50001442557945443689e-004
  -2.50001304597027309250e-004
  -2.50001179830182070681e-004
  -2.50001066995577509409e-004
  -2.50000964952057933358e-004
  -2.50000872667604145862e-004
  -2.50000789208894909788e-004
  -2.50000713731868696565e-004
  -2.50000645473186678281e-004
  -2.50000583742513208217e-004
  -2.50000527915533613064e-004
  -2.50000477427640124730e-004
  -2.50000431768222525913e-004
  -2.50000390475503173580e-004
  -2.50000353131867069159e-004
  -2.50000319359638511606e-004
  -2.50000288817261344734e-004
  -2.50000261195844309618e-004
  -2.50000236216037674975e-004
  -2.50000213625207481048e-004
  -2.50000193194881105072e-004
  -2.50000174718435579611e-004
  -2.50000158009009202341e-004
  -2.50000142897610687451e-004
  -2.50000129231410625659e-004
  -2.50000116872195357696e-004
  -2.50000105694969925602e-004
  -2.50000095586693188258e-004
  -2.50000086445134638621e-004
  -2.50000078177840996414e-004
  -2.50000070701200812710e-004
  -2.50000063939598792234e-004
  -2.50000057824651485041e-004
  -2.50000052294515240272e-004
  -2.50000047293260784127e-004
  -2.50000042770307862646e-004
  -2.50000038679913498280e-004
  -2.50000034980709360827e-004
  -2.50000031635283319602e-004
  -2.50000028609801598981e-004
  -2.50000025873665736829e-004
  -2.50000023399203857941e-004
  -2.50000021161390407771e-004
  -2.50000019137593099648e-004
  -2.50000017307344310751e-004
  -2.50000015652133891070e-004
  -2.50000014155221542220e-004
  -2.50000012801468278218e-004
  -2.50000011577183173499e-004
  -2.50000010469984097154e-004
  -2.50000009468673463353e-004
  -2.50000008563124498547e-004
  -2.50000007744178892773e-004
  -2.50000007003554100375e-004
  -2.50000006333760073276e-004
  -2.50000005728022662091e-004
  -2.50000005180215636655e-004
  -2.50000004684798940707e-004
  -2.50000004236762259167e-004
  -2.50000003831573898005e-004
  -2.50000003465136386160e-004
  -2.50000003133743649558e-004
  -2.50000002834043931390e-004
  -2.50000002563006398695e-004
  -2.50000002317889917329e-004
  -2.50000002096215404816e-004
  -2.50000001895741110532e-004
  -2.50000001714439413786e-004
  -2.50000001550476766074e-004
  -2.50000001402194880172e-004
  -2.50000001268094087636e-004
  -2.50000001146818159967e-004
  -2.50000001037140701880e-004
  -2.50000000937952411920e-004
  -2.50000000848250132027e-004
  -2.50000000767126710245e-004
  -2.50000000693761513949e-004
  -2.50000000627412623591e-004
  -2.50000000567409080658e-004
  -2.50000000513144165614e-004
</dep>
<dep _net1.Vt time>
  +9.99999999800000197875e-010
  +4.78090554879229467922e-001
  +9.10481796243700847171e-001
  +1.30156040287028185176e+000
  +1.65526551734485560807e+000
  +1.97514357997233025444e+000
  +2.26442968515716680500e+000
  +2.52604953481366845125e+000
  +2.76264902752196039870e+000
  +2.97662101788630195642e+000
  +3.17012951672710885376e+000
  +3.34513157685592332768e+000
  +3.50339708577563113678e+000
  +3.64652666547987402978e+000
  +3.77596786038170550981e+000
  +3.89302977708848318983e+000
  +3.99889632408271511466e+000
  +4.09463818520870059814e+000
  +4.18122364805908297569e+000
  +4.25952839677448480415e+000
  +4.33034436829591040663e+000
  +4.39438776163786304352e+000
  +4.45230628118413829242e+000
  +4.50468568726153062443e+000
  +4.55205572024084936800e+000
  +4.59489545807877508565e+000
  +4.63363816148418372620e+000
  +4.66867565571064435659e+000
  +4.70036229329045607273e+000
  +4.72901853778741720902e+000
  +4.75493420481271300559e+000
  +4.77837139308200153920e+000
  +4.79956713515701238748e+000
  +4.81873579468000912129e+000
  +4.83607123434559227348e+000
  +4.85174877653567371283e+000
  +4.86592697644656091427e+000
  +4.87874922564071411557e+000
  +4.89034520224072632999e+000
  +4.90083218243210794185e+000
  +4.91031622653878141449e+000
