<Qucs Dataset 0.0.19>
<indep time 11>
  +0.00000000000000000000e+000
  +2.99999999999999988898e-001
  +5.99999999999999977796e-001
  +9.00000000000000022204e-001
  +1.19999999999999995559e+000
  +1.50000000000000000000e+000
  +1.80000000000000004441e+000
  +2.10000000000000008882e+000
  +2.39999999999999991118e+000
  +2.70000000000000017764e+000
  +3.00000000000000000000e+000
</indep>
<dep Pr1.Vt time>
  +1.00000022484891828346e-008
  +2.11064841066565236360e+001
  +3.10761195537017798074e+001
  +3.57850279074906083565e+001
  +3.80091631832648175759e+001
  +3.90596738825866154343e+001
  +3.95558604589380351513e+001
  +3.97902209577656051920e+001
  +3.99009161218800372239e+001
  +3.99532002185042927067e+001
  +3.99778953059697883532e+001
</dep>
<dep Pr3.Vt time>
  +5.00000112424459141730e-009
  +1.05532420533282778052e+001
  +1.55380597768510266832e+001
  +1.78925139537456239225e+001
  +1.90045815916328990625e+001
  +1.95298368943528934949e+001
  +1.97779301825288307271e+001
  +1.98951104050098024345e+001
  +1.99504579870671854280e+001
  +1.99766000353794765942e+001
  +1.99889475791124020532e+001
</dep>
<dep Pr2.Vt time>
  +1.00000022484891795259e-008
  +2.11064841066565520578e+001
  +3.10761195537017513857e+001
  +3.57850279074906154619e+001
  +3.80091631832648033651e+001
  +3.90596738356384918234e+001
  +3.95558604119899399620e+001
  +3.97902209646840177015e+001
  +3.99009161287984284172e+001
  +3.99532002254226341620e+001
  +3.99778953128881227030e+001
</dep>
<dep V1.It time>
  -9.99999999749999943788e+001
  -4.72337897333586482773e+001
  -2.23097011157454332420e+001
  -1.05374302312731487064e+001
  -4.97709204183748354922e+000
  -2.35081538742200235603e+000
  -1.11034894654320259733e+000
  -5.24447672540576115274e-001
  -2.47709762254344600940e-001
  -1.16999520693594150078e-001
  -5.52618020296956891091e-002
</dep>
<dep _net2.Vt time>
  +1.00000000000000000000e+002
  +1.00000000000000000000e+002
  +1.00000000000000000000e+002
  +1.00000000000000000000e+002
  +1.00000000000000000000e+002
  +1.00000000000000000000e+002
  +1.00000000000000000000e+002
  +1.00000000000000000000e+002
  +1.00000000000000000000e+002
  +1.00000000000000000000e+002
  +1.00000000000000000000e+002
</dep>
<dep _net3.Vt time>
  +2.50000056212229537778e-008
  +5.27662102666413517227e+001
  +7.76902988842545596526e+001
  +8.94625697687268512936e+001
  +9.50229079581625200035e+001
  +9.76491846125779971999e+001
  +9.88896510534568022877e+001
  +9.94755523274594253280e+001
  +9.97522902377456546219e+001
  +9.98830004793064034629e+001
  +9.99447381979703095567e+001
</dep>
<dep _net1.Vt time>
  +5.00000112424459141730e-009
  +1.05532420533282778052e+001
  +1.55380597768510266832e+001
  +1.78925139537456239225e+001
  +1.90045815916328990625e+001
  +1.95298368943528934949e+001
  +1.97779301825288307271e+001
  +1.98951104050098024345e+001
  +1.99504579870671854280e+001
  +1.99766000353794765942e+001
  +1.99889475791124020532e+001
</dep>
<dep _net0.Vt time>
  +1.50000033727337709432e-008
  +3.16597261599848280866e+001
  +4.66141793305527798452e+001
  +5.36775418612362429371e+001
  +5.70137447748977024276e+001
  +5.85895107299913817656e+001
  +5.93337905945187671364e+001
  +5.96853313696938201360e+001
  +5.98513741158656173980e+001
  +5.99298002608021107562e+001
  +5.99668428920005212035e+001
</dep>
