<Qucs Dataset 0.0.19>
<indep tempo 1>
  +1.64999999999999991118e+000
</indep>
<indep tau 1>
  +3.29999999999999960032e-001
</indep>
<indep time 200>
  +0.00000000000000000000e+000
  +2.01005025125628143667e-002
  +4.02010050251256287335e-002
  +6.03015075376884396308e-002
  +8.04020100502512574669e-002
  +1.00502512562814075303e-001
  +1.20603015075376879262e-001
  +1.40703517587939697098e-001
  +1.60804020100502514934e-001
  +1.80904522613065332770e-001
  +2.01005025125628150606e-001
  +2.21105527638190968442e-001
  +2.41206030150753758523e-001
  +2.61306532663316604115e-001
  +2.81407035175879394195e-001
  +3.01507537688442184276e-001
  +3.21608040201005029868e-001
  +3.41708542713567819948e-001
  +3.61809045226130665540e-001
  +3.81909547738693455621e-001
  +4.02010050251256301213e-001
  +4.22110552763819091293e-001
  +4.42211055276381936885e-001
  +4.62311557788944726965e-001
  +4.82412060301507517046e-001
  +5.02512562814070307127e-001
  +5.22613065326633208230e-001
  +5.42713567839195998310e-001
  +5.62814070351758788391e-001
  +5.82914572864321578471e-001
  +6.03015075376884368552e-001
  +6.23115577889447269655e-001
  +6.43216080402010059736e-001
  +6.63316582914572849816e-001
  +6.83417085427135639897e-001
  +7.03517587939698541000e-001
  +7.23618090452261331080e-001
  +7.43718592964824121161e-001
  +7.63819095477386911242e-001
  +7.83919597989949701322e-001
  +8.04020100502512602425e-001
  +8.24120603015075392506e-001
  +8.44221105527638182586e-001
  +8.64321608040200972667e-001
  +8.84422110552763873770e-001
  +9.04522613065326663850e-001
  +9.24623115577889453931e-001
  +9.44723618090452244012e-001
  +9.64824120603015034092e-001
  +9.84924623115577935195e-001
  +1.00502512562814061425e+000
  +1.02512562814070351536e+000
  +1.04522613065326641646e+000
  +1.06532663316582909552e+000
  +1.08542713567839199662e+000
  +1.10552763819095467568e+000
  +1.12562814070351757678e+000
  +1.14572864321608047788e+000
  +1.16582914572864315694e+000
  +1.18592964824120605805e+000
  +1.20603015075376873710e+000
  +1.22613065326633163821e+000
  +1.24623115577889453931e+000
  +1.26633165829145721837e+000
  +1.28643216080402011947e+000
  +1.30653266331658302057e+000
  +1.32663316582914569963e+000
  +1.34673366834170860074e+000
  +1.36683417085427127979e+000
  +1.38693467336683418090e+000
  +1.40703517587939708200e+000
  +1.42713567839195976106e+000
  +1.44723618090452266216e+000
  +1.46733668341708534122e+000
  +1.48743718592964824232e+000
  +1.50753768844221114342e+000
  +1.52763819095477382248e+000
  +1.54773869346733672359e+000
  +1.56783919597989940264e+000
  +1.58793969849246230375e+000
  +1.60804020100502520485e+000
  +1.62814070351758788391e+000
  +1.64824120603015078501e+000
  +1.66834170854271346407e+000
  +1.68844221105527636517e+000
  +1.70854271356783926628e+000
  +1.72864321608040194533e+000
  +1.74874371859296484644e+000
  +1.76884422110552774754e+000
  +1.78894472361809042660e+000
  +1.80904522613065332770e+000
  +1.82914572864321600676e+000
  +1.84924623115577890786e+000
  +1.86934673366834180896e+000
  +1.88944723618090448802e+000
  +1.90954773869346738913e+000
  +1.92964824120603006818e+000
  +1.94974874371859296929e+000
  +1.96984924623115587039e+000
  +1.98994974874371854945e+000
  +2.01005025125628122851e+000
  +2.03015075376884412961e+000
  +2.05025125628140703071e+000
  +2.07035175879396993182e+000
  +2.09045226130653283292e+000
  +2.11055276381909528993e+000
  +2.13065326633165819104e+000
  +2.15075376884422109214e+000
  +2.17085427135678399324e+000
  +2.19095477386934689434e+000
  +2.21105527638190935136e+000
  +2.23115577889447225246e+000
  +2.25125628140703515356e+000
  +2.27135678391959805467e+000
  +2.29145728643216095577e+000
  +2.31155778894472341278e+000
  +2.33165829145728631389e+000
  +2.35175879396984921499e+000
  +2.37185929648241211609e+000
  +2.39195979899497501719e+000
  +2.41206030150753747421e+000
  +2.43216080402010037531e+000
  +2.45226130653266327641e+000
  +2.47236180904522617752e+000
  +2.49246231155778907862e+000
  +2.51256281407035197972e+000
  +2.53266331658291443674e+000
  +2.55276381909547733784e+000
  +2.57286432160804023894e+000
  +2.59296482412060314005e+000
  +2.61306532663316604115e+000
  +2.63316582914572849816e+000
  +2.65326633165829139926e+000
  +2.67336683417085430037e+000
  +2.69346733668341720147e+000
  +2.71356783919598010257e+000
  +2.73366834170854255959e+000
  +2.75376884422110546069e+000
  +2.77386934673366836179e+000
  +2.79396984924623126290e+000
  +2.81407035175879416400e+000
  +2.83417085427135662101e+000
  +2.85427135678391952212e+000
  +2.87437185929648242322e+000
  +2.89447236180904532432e+000
  +2.91457286432160822542e+000
  +2.93467336683417068244e+000
  +2.95477386934673358354e+000
  +2.97487437185929648464e+000
  +2.99497487437185938575e+000
  +3.01507537688442228685e+000
  +3.03517587939698474386e+000
  +3.05527638190954764497e+000
  +3.07537688442211054607e+000
  +3.09547738693467344717e+000
  +3.11557788944723634827e+000
  +3.13567839195979880529e+000
  +3.15577889447236170639e+000
  +3.17587939698492460749e+000
  +3.19597989949748750860e+000
  +3.21608040201005040970e+000
  +3.23618090452261286671e+000
  +3.25628140703517576782e+000
  +3.27638190954773866892e+000
  +3.29648241206030157002e+000
  +3.31658291457286447113e+000
  +3.33668341708542692814e+000
  +3.35678391959798982924e+000
  +3.37688442211055273035e+000
  +3.39698492462311563145e+000
  +3.41708542713567853255e+000
  +3.43718592964824098956e+000
  +3.45728643216080389067e+000
  +3.47738693467336679177e+000
  +3.49748743718592969287e+000
  +3.51758793969849259398e+000
  +3.53768844221105549508e+000
  +3.55778894472361795209e+000
  +3.57788944723618085320e+000
  +3.59798994974874375430e+000
  +3.61809045226130665540e+000
  +3.63819095477386955650e+000
  +3.65829145728643201352e+000
  +3.67839195979899491462e+000
  +3.69849246231155781572e+000
  +3.71859296482412071683e+000
  +3.73869346733668361793e+000
  +3.75879396984924607494e+000
  +3.77889447236180897605e+000
  +3.79899497487437187715e+000
  +3.81909547738693477825e+000
  +3.83919597989949767936e+000
  +3.85929648241206013637e+000
  +3.87939698492462303747e+000
  +3.89949748743718593857e+000
  +3.91959798994974883968e+000
  +3.93969849246231174078e+000
  +3.95979899497487419779e+000
  +3.97989949748743709890e+000
  +4.00000000000000000000e+000
</indep>
<dep VR.Vt time>
  +1.19999998800000021981e-007
  +1.19999998726907272561e-007
  +1.19999998653814549611e-007
  +1.19999998580721694312e-007
  +1.19999998507628997832e-007
  +1.19999998434536513110e-007
  +1.19999998361443737221e-007
  +1.19999998288350643694e-007
  +1.19999998215257920744e-007
  +1.19999998142164271352e-007
  +1.19999998069071839570e-007
  +1.19999997995979407788e-007
  +1.19999997922887981857e-007
  +1.19999997849793485432e-007
  +1.19999997776702535957e-007
  +1.19999997703609760068e-007
  +1.19999997630515766569e-007
  +1.19999997557424314168e-007
  +1.19999997484330638306e-007
  +1.19999997411240377046e-007
  +1.19999997338144610072e-007
  +1.19999997265053448839e-007
  +1.19999997191960434721e-007
  +1.19999997118866361813e-007
  +1.19999997045774591775e-007
  +1.19999996972683377603e-007
  +1.19999996899590178197e-007
  +1.19999996826497746414e-007
  +1.19999996753403620566e-007
  +1.19999996680312406394e-007
  +1.19999996607219683444e-007
  +1.19999996534124472335e-007
  +1.19999996461034052256e-007
  +1.19999996387940826380e-007
  +1.19999996314843788856e-007
  +1.19999996241754851085e-007
  +1.19999996168660037023e-007
  +1.19999996095570305158e-007
  +1.19999996022476761645e-007
  +1.19999995949387665055e-007
  +1.19999995876288721707e-007
  +1.19999995803201478001e-007
  +1.19999995730107405093e-007
  +1.19999995657013226305e-007
  +1.19999995583916665237e-007
  +1.19999995510822909966e-007
  +1.19999995437736989749e-007
  +1.19999995364640746319e-007
  +1.19999995291548738053e-007
  +1.19999995218455935694e-007
  +1.18797846798113919675e+001
  +1.11777692942012993882e+001
  +1.05172040002810582848e+001
  +9.89566537812143032227e+000
  +9.31085802587210231707e+000
  +8.76061122374010992075e+000
  +8.24288253566539452777e+000
  +7.75575022809540914892e+000
  +7.29740613678978888856e+000
  +6.86614895517779455503e+000
  +6.46037791935592409232e+000
  +6.07858686628519429007e+000
  +5.71935864313314823448e+000
  +5.38135984700874736575e+000
  +5.06333587556485120729e+000
  +4.76410627009690390565e+000
  +4.48256033385197394381e+000
  +4.21765300928402631087e+000
  +3.96840099895240427941e+000
  +3.73387911566480390491e+000
  +3.51321684831704317276e+000
  +3.30559513068252641688e+000
  +3.11024330115758118609e+000
  +2.92643624217774167562e+000
  +2.75349168868685723055e+000
  +2.59076769566849485216e+000
  +2.43766025533944663550e+000
  +2.29360105516072643184e+000
  +2.15805536834412059477e+000
  +2.03052006902417403467e+000
  +1.91052176472818047159e+000
  +1.79761503921221788005e+000
  +1.69138079914085182054e+000
  +1.59142471847367161786e+000
  +1.49737577478440897494e+000
  +1.40888487207967649795e+000
  +1.32562354500543655433e+000
  +1.24728273963140523506e+000
  +1.17357166628783637918e+000
  +1.10421672019659489195e+000
  +1.03896046589000512483e+000
  +9.77560681647888785051e-001
  +9.19789460405759484729e-001
  +8.65432363796976744652e-001
  +8.14287626188734847688e-001
  +7.66165405757389450514e-001
  +7.20887079823228305031e-001
  +6.78284581829080579496e-001
  +6.38199777501727183449e-001
  +6.00483877880465755084e-001
  +5.64996887034148187468e-001
  +5.31607082416659437740e-001
  +5.00190525932000085163e-001
  +4.70630603894097276907e-001
  +4.42817594173765982646e-001
  +4.16648258926162640137e-001
  +3.92025461386891649340e-001
  +3.68857805314483755410e-001
  +3.47059295740852036261e-001
  +3.26549019770483894831e-001
  +3.07250846243535491453e-001
  +2.89093143148066999970e-001
  +2.72008511732414248740e-001
  +2.55933536330841704398e-001
  +2.40808548973813429939e-001
  +2.26577407909193340174e-001
  +2.13187289212189767795e-001
  +2.00588490710671862871e-001
  +1.88734247497931661997e-001
  +1.77580558348134687208e-001
  +1.67086022390188659870e-001
  +1.57211685433734871253e-001
  +1.47920895376866923243e-001
  +1.39179166158845291079e-001
  +1.30954049752876500179e-001
  +1.23215015723733500863e-001
  +1.15933337903257438484e-001
  +1.09081987762973398048e-001
  +1.02635534088138413722e-001
  +9.65700485807712283304e-002
  +9.08630170412951798653e-002
  +8.54932557990899510969e-002
  +8.04408330818109362781e-002
  +7.56869950315390838114e-002
  +7.12140960931826327851e-002
  +6.70055335167702992294e-002
  +6.30456857304206863546e-002
  +5.93198543553796753258e-002
  +5.58142096477443061531e-002
  +5.25157391644786031293e-002
  +4.94121994631413485877e-002
  +4.64920706559652785472e-002
  +4.37445136497416342536e-002
  +4.11593299126824518908e-002
  +3.87269236189329291165e-002
  +3.64382660302897676274e-002
  +3.42848619828135525722e-002
  +3.22587183540399280446e-002
  +3.03523143936477168836e-002
  +2.85585738075493367205e-002
  +2.68708384917086817723e-002
  +2.52828438182230996745e-002
  +2.37886953819419488809e-002
  +2.23828471212961233050e-002
  +2.10600807321128513649e-002
  +1.98154862980377544091e-002
  +1.86444440656412524504e-002
  +1.75426072965603196963e-002
  +1.65058861330393824574e-002
  +1.55304324169804885969e-002
  +1.46126254061336169343e-002
  +1.37490583344295203005e-002
  +1.29365257665625676964e-002
  +1.21720116998709215750e-002
  +1.14526783693946754283e-002
  +1.07758557144830291463e-002
  +1.01390314679310478141e-002
  +9.53984183079725767129e-003
  +8.97606269834128056573e-003
  +8.44560140446759533006e-003
  +7.94648895404037602930e-003
  +7.47687271426933364182e-003
  +7.03500953802027595430e-003
  +6.61925929346907082618e-003
  +6.22807877620346062031e-003
  +5.86001598107799281934e-003
  +5.51370471255019367618e-003
  +5.18785951358502472885e-003
  +4.88127089422540905161e-003
  +4.59280084211854955356e-003
  +4.32137859841574822894e-003
  +4.06599668324147955900e-003
  +3.82570715609453770867e-003
  +3.59961809720665826262e-003
  +3.38689029689298592984e-003
  +3.18673414051318104612e-003
  +2.99840667754480705298e-003
  +2.82120886384973346139e-003
  +2.65448296693193697138e-003
  +2.49761012451443775717e-003
  +2.35000804744345259678e-003
  +2.21112885827245975179e-003
  +2.08045705767467836722e-003
  +1.95750761093371750121e-003
  +1.84182414759881396549e-003
  +1.73297726748700142707e-003
  +1.63056294681851454698e-003
  +1.53420103853285638706e-003
  +1.44353386125217753033e-003
  +1.35822487160908167425e-003
</dep>
<dep VC.Vt time>
  +3.63636360000000128639e-017
  +7.30927356561313893211e-009
  +1.46185471267741568882e-008
  +2.19278206834830530410e-008
  +2.92370942357398232547e-008
  +3.65463677835444691836e-008
  +4.38556413268970139888e-008
  +5.11649148657974278917e-008
  +5.84741884002457042750e-008
  +6.57834619302418563736e-008
  +7.30927354557858709524e-008
  +8.04020089768777877163e-008
  +8.77112824935175934303e-008
  +9.50205560057052616246e-008
  +1.02329829513440792299e-007
  +1.09639103016724291333e-007
  +1.16948376515555652848e-007
  +1.24257650009934850373e-007
  +1.31566923499861950083e-007
  +1.38876196985336912273e-007
  +1.46185470466359657534e-007
  +1.53494743942930397625e-007
  +1.60804017415048973726e-007
  +1.68113290882715385838e-007
  +1.75422564345929660430e-007
  +1.82731837804691903381e-007
  +1.90041111259002167631e-007
  +1.97350384708860082604e-007
  +2.04659658154265992406e-007
  +2.11968931595219791158e-007
  +2.19278205031721399450e-007
  +2.26587478463771055512e-007
  +2.33896751891368362295e-007
  +2.41206025314513610969e-007
  +2.48515298733206748592e-007
  +2.55824572147447775165e-007
  +2.63133845557236637749e-007
  +2.70443118962573495163e-007
  +2.77752392363458241526e-007
  +2.85061665759890823900e-007
  +2.92370939151871242284e-007
  +2.99680212539399655498e-007
  +3.06989485922475798843e-007
  +3.14298759301099937017e-007
  +3.21608032675271858263e-007
  +3.28917306044991668458e-007
  +3.36226579410259261725e-007
  +3.43535852771074849820e-007
  +3.50845126127438168047e-007
  +3.58154399479349586983e-007
  +1.20215320188607616148e-001
  +8.22230705798700944875e-001
  +1.48279599971894127108e+000
  +2.10433462187857012182e+000
  +2.68914197412789768293e+000
  +3.23938877625989096742e+000
  +3.75711746433460502814e+000
  +4.24424977190459085108e+000
  +4.70259386321021111144e+000
  +5.13385104482220544497e+000
  +5.53962208064407590768e+000
  +5.92141313371480570993e+000
  +6.28064135686685176552e+000
  +6.61864015299125263425e+000
  +6.93666412443514879271e+000
  +7.23589372990309609435e+000
  +7.51743966614802605619e+000
  +7.78234699071597368913e+000
  +8.03159900104759572059e+000
  +8.26612088433519609509e+000
  +8.48678315168295682724e+000
  +8.69440486931747358312e+000
  +8.88975669884241881391e+000
  +9.07356375782225832438e+000
  +9.24650831131314276945e+000
  +9.40923230433150514784e+000
  +9.56233974466055336450e+000
  +9.70639894483927356816e+000
  +9.84194463165587940523e+000
  +9.96947993097582596533e+000
  +1.00894782352718195284e+001
  +1.02023849607877821200e+001
  +1.03086192008591481795e+001
  +1.04085752815263283821e+001
  +1.05026242252155910251e+001
  +1.05911151279203235021e+001
  +1.06743764549945634457e+001
  +1.07527172603685947649e+001
  +1.08264283337121636208e+001
  +1.08957832798034051081e+001
  +1.09610395341099948752e+001
  +1.10224393183521112149e+001
  +1.10802105395942405153e+001
  +1.11345676362030232553e+001
  +1.11857123738112651523e+001
  +1.12338345942426105495e+001
  +1.12791129201767716950e+001
  +1.13217154181709194205e+001
  +1.13618002224982728166e+001
  +1.13995161221195342449e+001
  +1.14350031129658518125e+001
  +1.14683929175833405623e+001
  +1.14998094740679999148e+001
  +1.15293693961059027231e+001
  +1.15571824058262340174e+001
  +1.15833517410738373599e+001
  +1.16079745386131083507e+001
  +1.16311421946855162446e+001
  +1.16529407042591479637e+001
  +1.16734509802295161052e+001
  +1.16927491537564645085e+001
  +1.17109068568519330000e+001
  +1.17279914882675857513e+001
  +1.17440664636691582956e+001
  +1.17591914510261865701e+001
  +1.17734225920908066598e+001
  +1.17868127107878102322e+001
  +1.17994115092893281371e+001
  +1.18112657525020683380e+001
  +1.18224194416518653128e+001
  +1.18329139776098113401e+001
  +1.18427883145662651287e+001
  +1.18520791046231330768e+001
  +1.18608208338411547089e+001
  +1.18690459502471234998e+001
  +1.18767849842762664991e+001
  +1.18840666620967425615e+001
  +1.18909180122370266020e+001
  +1.18973644659118615863e+001
  +1.19034299514192287717e+001
  +1.19091369829587048201e+001
  +1.19145067442009100489e+001
  +1.19195591669181890637e+001
  +1.19243130049684609162e+001
  +1.19287859039068173672e+001
  +1.19329944664832297008e+001
  +1.19369543142695793136e+001
  +1.19406801456446203247e+001
  +1.19441857903522556938e+001
  +1.19474842608355213969e+001
  +1.19505878005368586514e+001
  +1.19535079293440347215e+001
  +1.19562554863502583657e+001
  +1.19588406700873175481e+001
  +1.19612730763810670709e+001
  +1.19635617339697102324e+001
  +1.19657151380171864474e+001
  +1.19677412816459600720e+001
  +1.19696476856063522831e+001
  +1.19714414261924506633e+001
  +1.19731291615082913182e+001
  +1.19747171561817769003e+001
  +1.19762113046180580511e+001
  +1.19776171528787038767e+001
  +1.19789399192678871486e+001
  +1.19801845137019622456e+001
  +1.19813555559343587475e+001
  +1.19824573927034396803e+001
  +1.19834941138669606175e+001
  +1.19844695675830195114e+001
  +1.19853873745938663831e+001
  +1.19862509416655704797e+001
  +1.19870634742334374323e+001
  +1.19878279883001290784e+001
  +1.19885473216306053246e+001
  +1.19892241442855169709e+001
  +1.19898609685320689522e+001
  +1.19904601581692027423e+001
  +1.19910239373016587194e+001
  +1.19915543985955324047e+001
  +1.19920535110459596240e+001
  +1.19925231272857306664e+001
  +1.19929649904619797240e+001
  +1.19933807407065309292e+001
  +1.19937719212237965394e+001
  +1.19941399840189220072e+001
  +1.19944862952874498063e+001
  +1.19948121404864149753e+001
  +1.19951187291057745909e+001
  +1.19954071991578814504e+001
  +1.19956786214015842518e+001
  +1.19959340033167585204e+001
  +1.19961742928439054623e+001
  +1.19964003819027933417e+001
  +1.19966131097031070141e+001
  +1.19968132658594868190e+001
  +1.19970015933224551929e+001
  +1.19971787911361502665e+001
  +1.19973455170330680630e+001
  +1.19975023898754855622e+001
  +1.19976499919525565474e+001
  +1.19977888711417275402e+001
  +1.19979195429423253216e+001
  +1.19980424923890662825e+001
  +1.19981581758524011860e+001
  +1.19982670227325129986e+001
  +1.19983694370531814855e+001
  +1.19984657989614671436e+001
  +1.19985564661387478225e+001
  +1.19986417751283909183e+001
</dep>
<dep G.It time>
  -1.19999998800000011434e-011
  -1.19999998726907279049e-011
  -1.19999998653814546664e-011
  -1.19999998580721814279e-011
  -1.19999998507629065739e-011
  -1.19999998434536333354e-011
  -1.19999998361443600969e-011
  -1.19999998288350868584e-011
  -1.19999998215258136199e-011
  -1.19999998142165403814e-011
  -1.19999998069072671429e-011
  -1.19999997995979922889e-011
  -1.19999997922887190504e-011
  -1.19999997849794458119e-011
  -1.19999997776701725734e-011
  -1.19999997703608993349e-011
  -1.19999997630516260964e-011
  -1.19999997557423528579e-011
  -1.19999997484330796195e-011
  -1.19999997411238063810e-011
  -1.19999997338145315269e-011
  -1.19999997265052582884e-011
  -1.19999997191959850499e-011
  -1.19999997118867118114e-011
  -1.19999997045774385730e-011
  -1.19999996972681653345e-011
  -1.19999996899588920960e-011
  -1.19999996826496188575e-011
  -1.19999996753403456190e-011
  -1.19999996680310723805e-011
  -1.19999996607217991420e-011
  -1.19999996534125242880e-011
  -1.19999996461032510495e-011
  -1.19999996387939778110e-011
  -1.19999996314847045725e-011
  -1.19999996241754313340e-011
  -1.19999996168661580955e-011
  -1.19999996095568848570e-011
