<Qucs Dataset 0.0.19>
<indep tempo 1>
  +1.64999999999999991118e+000
</indep>
<indep tau 1>
  +3.29999999999999960032e-001
</indep>
<indep time 200>
  +0.00000000000000000000e+000
  +2.01005025125628143667e-002
  +4.02010050251256287335e-002
  +6.03015075376884396308e-002
  +8.04020100502512574669e-002
  +1.00502512562814075303e-001
  +1.20603015075376879262e-001
  +1.40703517587939697098e-001
  +1.60804020100502514934e-001
  +1.80904522613065332770e-001
  +2.01005025125628150606e-001
  +2.21105527638190968442e-001
  +2.41206030150753758523e-001
  +2.61306532663316604115e-001
  +2.81407035175879394195e-001
  +3.01507537688442184276e-001
  +3.21608040201005029868e-001
  +3.41708542713567819948e-001
  +3.61809045226130665540e-001
  +3.81909547738693455621e-001
  +4.02010050251256301213e-001
  +4.22110552763819091293e-001
  +4.42211055276381936885e-001
  +4.62311557788944726965e-001
  +4.82412060301507517046e-001
  +5.02512562814070307127e-001
  +5.22613065326633208230e-001
  +5.42713567839195998310e-001
  +5.62814070351758788391e-001
  +5.82914572864321578471e-001
  +6.03015075376884368552e-001
  +6.23115577889447269655e-001
  +6.43216080402010059736e-001
  +6.63316582914572849816e-001
  +6.83417085427135639897e-001
  +7.03517587939698541000e-001
  +7.23618090452261331080e-001
  +7.43718592964824121161e-001
  +7.63819095477386911242e-001
  +7.83919597989949701322e-001
  +8.04020100502512602425e-001
  +8.24120603015075392506e-001
  +8.44221105527638182586e-001
  +8.64321608040200972667e-001
  +8.84422110552763873770e-001
  +9.04522613065326663850e-001
  +9.24623115577889453931e-001
  +9.44723618090452244012e-001
  +9.64824120603015034092e-001
  +9.84924623115577935195e-001
  +1.00502512562814061425e+000
  +1.02512562814070351536e+000
  +1.04522613065326641646e+000
  +1.06532663316582909552e+000
  +1.08542713567839199662e+000
  +1.10552763819095467568e+000
  +1.12562814070351757678e+000
  +1.14572864321608047788e+000
  +1.16582914572864315694e+000
  +1.18592964824120605805e+000
  +1.20603015075376873710e+000
  +1.22613065326633163821e+000
  +1.24623115577889453931e+000
  +1.26633165829145721837e+000
  +1.28643216080402011947e+000
  +1.30653266331658302057e+000
  +1.32663316582914569963e+000
  +1.34673366834170860074e+000
  +1.36683417085427127979e+000
  +1.38693467336683418090e+000
  +1.40703517587939708200e+000
  +1.42713567839195976106e+000
  +1.44723618090452266216e+000
  +1.46733668341708534122e+000
  +1.48743718592964824232e+000
  +1.50753768844221114342e+000
  +1.52763819095477382248e+000
  +1.54773869346733672359e+000
  +1.56783919597989940264e+000
  +1.58793969849246230375e+000
  +1.60804020100502520485e+000
  +1.62814070351758788391e+000
  +1.64824120603015078501e+000
  +1.66834170854271346407e+000
  +1.68844221105527636517e+000
  +1.70854271356783926628e+000
  +1.72864321608040194533e+000
  +1.74874371859296484644e+000
  +1.76884422110552774754e+000
  +1.78894472361809042660e+000
  +1.80904522613065332770e+000
  +1.82914572864321600676e+000
  +1.84924623115577890786e+000
  +1.86934673366834180896e+000
  +1.88944723618090448802e+000
  +1.90954773869346738913e+000
  +1.92964824120603006818e+000
  +1.94974874371859296929e+000
  +1.96984924623115587039e+000
  +1.98994974874371854945e+000
  +2.01005025125628122851e+000
  +2.03015075376884412961e+000
  +2.05025125628140703071e+000
  +2.07035175879396993182e+000
  +2.09045226130653283292e+000
  +2.11055276381909528993e+000
  +2.13065326633165819104e+000
  +2.15075376884422109214e+000
  +2.17085427135678399324e+000
  +2.19095477386934689434e+000
  +2.21105527638190935136e+000
  +2.23115577889447225246e+000
  +2.25125628140703515356e+000
  +2.27135678391959805467e+000
  +2.29145728643216095577e+000
  +2.31155778894472341278e+000
  +2.33165829145728631389e+000
  +2.35175879396984921499e+000
  +2.37185929648241211609e+000
  +2.39195979899497501719e+000
  +2.41206030150753747421e+000
  +2.43216080402010037531e+000
  +2.45226130653266327641e+000
  +2.47236180904522617752e+000
  +2.49246231155778907862e+000
  +2.51256281407035197972e+000
  +2.53266331658291443674e+000
  +2.55276381909547733784e+000
  +2.57286432160804023894e+000
  +2.59296482412060314005e+000
  +2.61306532663316604115e+000
  +2.63316582914572849816e+000
  +2.65326633165829139926e+000
  +2.67336683417085430037e+000
  +2.69346733668341720147e+000
  +2.71356783919598010257e+000
  +2.73366834170854255959e+000
  +2.75376884422110546069e+000
  +2.77386934673366836179e+000
  +2.79396984924623126290e+000
  +2.81407035175879416400e+000
  +2.83417085427135662101e+000
  +2.85427135678391952212e+000
  +2.87437185929648242322e+000
  +2.89447236180904532432e+000
  +2.91457286432160822542e+000
  +2.93467336683417068244e+000
  +2.95477386934673358354e+000
  +2.97487437185929648464e+000
  +2.99497487437185938575e+000
  +3.01507537688442228685e+000
  +3.03517587939698474386e+000
  +3.05527638190954764497e+000
  +3.07537688442211054607e+000
  +3.09547738693467344717e+000
  +3.11557788944723634827e+000
  +3.13567839195979880529e+000
  +3.15577889447236170639e+000
  +3.17587939698492460749e+000
  +3.19597989949748750860e+000
  +3.21608040201005040970e+000
  +3.23618090452261286671e+000
  +3.25628140703517576782e+000
  +3.27638190954773866892e+000
  +3.29648241206030157002e+000
  +3.31658291457286447113e+000
  +3.33668341708542692814e+000
  +3.35678391959798982924e+000
  +3.37688442211055273035e+000
  +3.39698492462311563145e+000
  +3.41708542713567853255e+000
  +3.43718592964824098956e+000
  +3.45728643216080389067e+000
  +3.47738693467336679177e+000
  +3.49748743718592969287e+000
  +3.51758793969849259398e+000
  +3.53768844221105549508e+000
  +3.55778894472361795209e+000
  +3.57788944723618085320e+000
  +3.59798994974874375430e+000
  +3.61809045226130665540e+000
  +3.63819095477386955650e+000
  +3.65829145728643201352e+000
  +3.67839195979899491462e+000
  +3.69849246231155781572e+000
  +3.71859296482412071683e+000
  +3.73869346733668361793e+000
  +3.75879396984924607494e+000
  +3.77889447236180897605e+000
  +3.79899497487437187715e+000
  +3.81909547738693477825e+000
  +3.83919597989949767936e+000
  +3.85929648241206013637e+000
  +3.87939698492462303747e+000
  +3.89949748743718593857e+000
  +3.91959798994974883968e+000
  +3.93969849246231174078e+000
  +3.95979899497487419779e+000
  +3.97989949748743709890e+000
  +4.00000000000000000000e+000
</indep>
<dep VR1.Vt time>
  +1.19999998800000021981e-007
  +1.19999998726907299031e-007
  +1.19999998653814576081e-007
  +1.19999998580721826661e-007
  +1.19999998507629103711e-007
  +1.19999998434536380762e-007
  +1.19999998361443631342e-007
  +1.19999998288350881922e-007
  +1.19999998215258132503e-007
  +1.19999998142165436023e-007
  +1.19999998069072686603e-007
  +1.19999997995979963653e-007
  +1.19999997922887187764e-007
  +1.19999997849794438344e-007
  +1.19999997776701715394e-007
  +1.19999997703608992444e-007
  +1.19999997630516269495e-007
  +1.19999997557423546545e-007
  +1.19999997484330797125e-007
  +1.19999997411238074175e-007
  +1.19999997338145351225e-007
  +1.19999997265052601806e-007
  +1.19999997191959878856e-007
  +1.19999997118867129436e-007
  +1.19999997045774380017e-007
  +1.19999996972681657067e-007
  +1.19999996899588934117e-007
  +1.19999996826496184697e-007
  +1.19999996753403461748e-007
  +1.19999996680310712328e-007
  +1.19999996607218015848e-007
  +1.19999996534125239959e-007
  +1.19999996461032543479e-007
  +1.19999996387939767589e-007
  +1.19999996314847071109e-007
  +1.19999996241754321689e-007
  +1.19999996168661625209e-007
  +1.19999996095568875790e-007
  +1.19999996022476126370e-007
  +1.19999995949383429890e-007
  +1.19999995876290680470e-007
  +1.19999995803197983990e-007
  +1.19999995730105181631e-007
  +1.19999995657012485151e-007
  +1.19999995583919735732e-007
  +1.19999995510827039251e-007
  +1.19999995437734236892e-007
  +1.19999995364641540412e-007
  +1.19999995291548843932e-007
  +1.19999995218456094513e-007
  +1.18797846798113919675e+001
  +1.11777692942012993882e+001
  +1.05172040002810582848e+001
  +9.89566537812143032227e+000
  +9.31085802587210231707e+000
  +8.76061122374010992075e+000
  +8.24288253566539452777e+000
  +7.75575022809541270163e+000
  +7.29740613678979688217e+000
  +6.86614895517780521317e+000
  +6.46037791935593563863e+000
  +6.07858686628520672457e+000
  +5.71935864313316155716e+000
  +5.38135984700876068842e+000
  +5.06333587556486452996e+000
  +4.76410627009691722833e+000
  +4.48256033385198726648e+000
  +4.21765300928404052172e+000
  +3.96840099895242381933e+000
  +3.73387911566482522119e+000
  +3.51321684831706626539e+000
  +3.30559513068254773316e+000
  +3.11024330115759894966e+000
  +2.92643624217775766283e+000
  +2.75349168868687499412e+000
  +2.59076769566851616844e+000
  +2.43766025533946795179e+000
  +2.29360105516074419540e+000
  +2.15805536834414013470e+000
  +2.03052006902419002188e+000
  +1.91052176472820001152e+000
  +1.79761503921223919633e+000
  +1.69138079914087313682e+000
  +1.59142471847369648685e+000
  +1.49737577478443739665e+000
  +1.40888487207970669601e+000
  +1.32562354500546675240e+000
  +1.24728273963143188041e+000
  +1.17357166628786302454e+000
  +1.10421672019661620823e+000
  +1.03896046589002821747e+000
  +9.77560681647913654047e-001
  +9.19789460405786130082e-001
  +8.65432363797006942718e-001
  +8.14287626188766822111e-001
  +7.66165405757421424937e-001
  +7.20887079823260279454e-001
  +6.78284581829114330276e-001
  +6.38199777501753828801e-001
  +6.00483877880488847723e-001
  +5.64996887034169503750e-001
  +5.31607082416682530379e-001
  +5.00190525932021401445e-001
  +4.70630603894116816832e-001
  +4.42817594173787298928e-001
  +4.16648258926183956419e-001
  +3.92025461386911189265e-001
  +3.68857805314505071692e-001
  +3.47059295740873352543e-001
  +3.26549019770506987470e-001
  +3.07250846243560360449e-001
  +2.89093143148091868966e-001
  +2.72008511732435565023e-001
  +2.55933536330861244323e-001
  +2.40808548973836522578e-001
  +2.26577407909214656456e-001
  +2.13187289212211084077e-001
  +2.00588490710698508224e-001
  +1.88734247497954754635e-001
  +1.77580558348152450776e-001
  +1.67086022390202870724e-001
  +1.57211685433752634822e-001
  +1.47920895376882910455e-001
  +1.39179166158861278291e-001
  +1.30954049752888934677e-001
  +1.23215015723751264431e-001
  +1.15933337903275202052e-001
  +1.09081987762991161617e-001
  +1.02635534088152624577e-001
  +9.65700485807836628283e-002
  +9.08630170413022852927e-002
  +8.54932557990988328811e-002
  +8.04408330818180417054e-002
  +7.56869950315461892387e-002
  +7.12140960931968436398e-002
  +6.70055335167845100841e-002
  +6.30456857304402262798e-002
  +5.93198543553974388942e-002
  +5.58142096477585170078e-002
  +5.25157391644981430545e-002
  +4.94121994631591121561e-002
  +4.64920706559865948293e-002
  +4.37445136497629505357e-002
  +4.11593299127002154592e-002
  +3.87269236189524690417e-002
  +3.64382660303110839095e-002
  +3.42848619828348688543e-002
  +3.22587183540612443267e-002
  +3.03523143936708095225e-002
  +2.85585738075759820731e-002
  +2.68708384917388798385e-002
  +2.52828438182532977407e-002
  +2.37886953819774760177e-002
  +2.23828471213316504418e-002
  +2.10600807321466021449e-002
  +1.98154862980715051890e-002
  +1.86444440656714505167e-002
  +1.75426072965887414057e-002
  +1.65058861330695805236e-002
  +1.55304324170071339495e-002
  +1.46126254061567095732e-002
  +1.37490583344508365826e-002
  +1.29365257665803312648e-002
  +1.21720116998922378571e-002
  +1.14526783694177680673e-002
  +1.07758557145078981421e-002
  +1.01390314679523640962e-002
  +9.53984183081679759653e-003
  +8.97606269836259684780e-003
  +8.44560140448535889846e-003
  +7.94648895405991595453e-003
  +7.47687271429064992390e-003
  +7.03500953803626316585e-003
  +6.61925929348861075141e-003
  +6.22807877623010597290e-003
  +5.86001598110463817193e-003
  +5.51370471257861538561e-003
  +5.18785951361699915196e-003
  +4.88127089425027804737e-003
  +4.59280084214519490615e-003
  +4.32137859843706451102e-003
  +4.06599668326279584107e-003
  +3.82570715611052492022e-003
  +3.59961809721909276050e-003
  +3.38689029690542042772e-003
  +3.18673414053272097135e-003
  +2.99840667756612333505e-003
  +2.82120886386927338663e-003
  +2.65448296695147689661e-003
  +2.49761012453575403924e-003
  +2.35000804746121616517e-003
  +2.21112885829910510438e-003
  +2.08045705770132371981e-003
  +1.95750761096213921064e-003
  +1.84182414762723567492e-003
  +1.73297726751187042282e-003
  +1.63056294683983082905e-003
  +1.53420103855417266914e-003
  +1.44353386127349381240e-003
  +1.35822487162506888581e-003
</dep>
<dep VC1.Vt time>
  +3.63636360000000128639e-017
  +7.30927356561313975929e-009
  +1.46185471267741568882e-008
  +2.19278206834830596584e-008
  +2.92370942357398397983e-008
  +3.65463677835444956534e-008
  +4.38556413268970338411e-008
  +5.11649148657974675964e-008
  +5.84741884002457572146e-008
  +6.57834619302419622527e-008
  +7.30927354557860562409e-008
  +8.04020089768780259443e-008
  +8.77112824935178448932e-008
  +9.50205560057055924968e-008
  +1.02329829513441202581e-007
  +1.09639103016724661910e-007
  +1.16948376515556036660e-007
  +1.24257650009935247419e-007
  +1.31566923499862320660e-007
  +1.38876196985337309320e-007
  +1.46185470466360186930e-007
  +1.53494743942930927020e-007
  +1.60804017415049635470e-007
  +1.68113290882716153461e-007
  +1.75422564345930613342e-007
  +1.82731837804692935702e-007
  +1.90041111259003199953e-007
  +1.97350384708861273744e-007
  +2.04659658154267262955e-007
  +2.11968931595221114647e-007
  +2.19278205031722855288e-007
  +2.26587478463772511350e-007
  +2.33896751891369924012e-007
  +2.41206025314515199155e-007
  +2.48515298733208548537e-007
  +2.55824572147449680989e-007
  +2.63133845557238543573e-007
  +2.70443118962575453926e-007
  +2.77752392363460147350e-007
  +2.85061665759892835603e-007
  +2.92370939151873306927e-007
  +2.99680212539401720141e-007
  +3.06989485922478022305e-007
  +3.14298759301102213418e-007
  +3.21608032675274293482e-007
  +3.28917306044994103678e-007
  +3.36226579410261908703e-007
  +3.43535852771077549738e-007
  +3.50845126127441026784e-007
  +3.58154399479352604538e-007
  +1.20215320188607616148e-001
  +8.22230705798700611808e-001
  +1.48279599971894215926e+000
  +2.10433462187857012182e+000
  +2.68914197412789723884e+000
  +3.23938877625989007925e+000
  +3.75711746433460458405e+000
  +4.24424977190458729837e+000
  +4.70259386321020311783e+000
  +5.13385104482219478683e+000
  +5.53962208064406436137e+000
  +5.92141313371479327543e+000
  +6.28064135686683844284e+000
  +6.61864015299123931158e+000
  +6.93666412443513547004e+000
  +7.23589372990308277167e+000
  +7.51743966614801273352e+000
  +7.78234699071595947828e+000
  +8.03159900104757618067e+000
  +8.26612088433517477881e+000
  +8.48678315168293373461e+000
  +8.69440486931745226684e+000
  +8.88975669884240105034e+000
  +9.07356375782224233717e+000
  +9.24650831131312500588e+000
  +9.40923230433148383156e+000
  +9.56233974466053204821e+000
  +9.70639894483925580460e+000
  +9.84194463165585986530e+000
  +9.96947993097580997812e+000
  +1.00894782352717999885e+001
  +1.02023849607877608037e+001
  +1.03086192008591268632e+001
  +1.04085752815263035131e+001
  +1.05026242252155626034e+001
  +1.05911151279202933040e+001
  +1.06743764549945332476e+001
  +1.07527172603685681196e+001
  +1.08264283337121369755e+001
  +1.08957832798033837918e+001
  +1.09610395341099717825e+001
  +1.10224393183520863460e+001
  +1.10802105395942138699e+001
  +1.11345676362029930573e+001
  +1.11857123738112331779e+001
  +1.12338345942425785751e+001
  +1.12791129201767397205e+001
  +1.13217154181708856697e+001
  +1.13618002224982461712e+001
  +1.13995161221195111523e+001
  +1.14350031129658304963e+001
  +1.14683929175833174696e+001
  +1.14998094740679785986e+001
  +1.15293693961058831832e+001
  +1.15571824058262127011e+001
  +1.15833517410738160436e+001
  +1.16079745386130888107e+001
  +1.16311421946854949283e+001
  +1.16529407042591266475e+001
  +1.16734509802294930125e+001
  +1.16927491537564396396e+001
  +1.17109068568519081310e+001
  +1.17279914882675644350e+001
  +1.17440664636691387557e+001
  +1.17591914510261634774e+001
  +1.17734225920907853435e+001
  +1.17868127107877889159e+001
  +1.17994115092893014918e+001
  +1.18112657525020452454e+001
  +1.18224194416518475492e+001
  +1.18329139776097971293e+001
  +1.18427883145662473652e+001
  +1.18520791046231170895e+001
  +1.18608208338411387217e+001
  +1.18690459502471110653e+001
  +1.18767849842762487356e+001
  +1.18840666620967247979e+001
  +1.18909180122370088384e+001
  +1.18973644659118473754e+001
  +1.19034299514192163372e+001
  +1.19091369829586977147e+001
  +1.19145067442009011671e+001
  +1.19195591669181819583e+001
  +1.19243130049684538108e+001
  +1.19287859039068031564e+001
  +1.19329944664832154899e+001
  +1.19369543142695597737e+001
  +1.19406801456446025611e+001
  +1.19441857903522414830e+001
  +1.19474842608355018569e+001
  +1.19505878005368408878e+001
  +1.19535079293440134052e+001
  +1.19562554863502370495e+001
  +1.19588406700872997845e+001
  +1.19612730763810475310e+001
  +1.19635617339696889161e+001
  +1.19657151380171651311e+001
  +1.19677412816459387557e+001
  +1.19696476856063291905e+001
  +1.19714414261924240179e+001
  +1.19731291615082611202e+001
  +1.19747171561817467023e+001
  +1.19762113046180225240e+001
  +1.19776171528786683496e+001
  +1.19789399192678533979e+001
  +1.19801845137019284948e+001
  +1.19813555559343285495e+001
  +1.19824573927034112586e+001
  +1.19834941138669304195e+001
  +1.19844695675829928661e+001
  +1.19853873745938432904e+001
  +1.19862509416655491634e+001
  +1.19870634742334196687e+001
  +1.19878279883001077621e+001
  +1.19885473216305822319e+001
  +1.19892241442854921019e+001
  +1.19898609685320476359e+001
  +1.19904601581691832024e+001
  +1.19910239373016374032e+001
  +1.19915543985955146411e+001
  +1.19920535110459400840e+001
  +1.19925231272857093501e+001
  +1.19929649904619637368e+001
  +1.19933807407065113892e+001
  +1.19937719212237698940e+001
  +1.19941399840188953618e+001
  +1.19944862952874213846e+001
  +1.19948121404863830008e+001
  +1.19951187291057497220e+001
  +1.19954071991578548051e+001
  +1.19956786214015629355e+001
  +1.19959340033167372042e+001
  +1.19961742928438894751e+001
  +1.19964003819027809072e+001
  +1.19966131097030945796e+001
  +1.19968132658594672790e+001
  +1.19970015933224338767e+001
  +1.19971787911361307266e+001
  +1.19973455170330485231e+001
  +1.19975023898754642460e+001
  +1.19976499919525387838e+001
  +1.19977888711417008949e+001
  +1.19979195429422986763e+001
  +1.19980424923890378608e+001
  +1.19981581758523727643e+001
  +1.19982670227324881296e+001
  +1.19983694370531601692e+001
  +1.19984657989614458273e+001
  +1.19985564661387265062e+001
  +1.19986417751283749311e+001
</dep>
<dep G.It time>
  -1.19999998800000011434e-011
  -1.19999998726907279049e-011
  -1.19999998653814546664e-011
  -1.19999998580721798123e-011
  -1.19999998507629065739e-011
  -1.19999998434536333354e-011
  -1.19999998361443600969e-011
  -1.19999998288350868584e-011
  -1.19999998215258120043e-011
  -1.19999998142165403814e-011
  -1.19999998069072671429e-011
  -1.19999997995979939045e-011
  -1.19999997922887206660e-011
  -1.19999997849794458119e-011
  -1.19999997776701725734e-011
  -1.19999997703608993349e-011
  -1.19999997630516260964e-011
  -1.19999997557423528579e-011
  -1.19999997484330796195e-011
  -1.19999997411238063810e-011
  -1.19999997338145315269e-011
  -1.19999997265052582884e-011
  -1.19999997191959850499e-011
  -1.19999997118867118114e-011
  -1.19999997045774385730e-011
  -1.19999996972681653345e-011
  -1.19999996899588920960e-011
  -1.19999996826496172419e-011
  -1.19999996753403440034e-011
  -1.19999996680310707649e-011
  -1.19999996607217975264e-011
  -1.19999996534125259035e-011
  -1.19999996461032526651e-011
  -1.19999996387939794266e-011
  -1.19999996314847061881e-011
  -1.19999996241754313340e-011
  -1.19999996168661580955e-011
