<Qucs Dataset 0.0.19>
<indep time 200>
  +0.00000000000000000000e+000
  +2.01005025125628143667e-002
  +4.02010050251256287335e-002
  +6.03015075376884396308e-002
  +8.04020100502512574669e-002
  +1.00502512562814075303e-001
  +1.20603015075376879262e-001
  +1.40703517587939697098e-001
  +1.60804020100502514934e-001
  +1.80904522613065332770e-001
  +2.01005025125628150606e-001
  +2.21105527638190968442e-001
  +2.41206030150753758523e-001
  +2.61306532663316604115e-001
  +2.81407035175879394195e-001
  +3.01507537688442184276e-001
  +3.21608040201005029868e-001
  +3.41708542713567819948e-001
  +3.61809045226130665540e-001
  +3.81909547738693455621e-001
  +4.02010050251256301213e-001
  +4.22110552763819091293e-001
  +4.42211055276381936885e-001
  +4.62311557788944726965e-001
  +4.82412060301507517046e-001
  +5.02512562814070307127e-001
  +5.22613065326633208230e-001
  +5.42713567839195998310e-001
  +5.62814070351758788391e-001
  +5.82914572864321578471e-001
  +6.03015075376884368552e-001
  +6.23115577889447269655e-001
  +6.43216080402010059736e-001
  +6.63316582914572849816e-001
  +6.83417085427135639897e-001
  +7.03517587939698541000e-001
  +7.23618090452261331080e-001
  +7.43718592964824121161e-001
  +7.63819095477386911242e-001
  +7.83919597989949701322e-001
  +8.04020100502512602425e-001
  +8.24120603015075392506e-001
  +8.44221105527638182586e-001
  +8.64321608040200972667e-001
  +8.84422110552763873770e-001
  +9.04522613065326663850e-001
  +9.24623115577889453931e-001
  +9.44723618090452244012e-001
  +9.64824120603015034092e-001
  +9.84924623115577935195e-001
  +1.00502512562814061425e+000
  +1.02512562814070351536e+000
  +1.04522613065326641646e+000
  +1.06532663316582909552e+000
  +1.08542713567839199662e+000
  +1.10552763819095467568e+000
  +1.12562814070351757678e+000
  +1.14572864321608047788e+000
  +1.16582914572864315694e+000
  +1.18592964824120605805e+000
  +1.20603015075376873710e+000
  +1.22613065326633163821e+000
  +1.24623115577889453931e+000
  +1.26633165829145721837e+000
  +1.28643216080402011947e+000
  +1.30653266331658302057e+000
  +1.32663316582914569963e+000
  +1.34673366834170860074e+000
  +1.36683417085427127979e+000
  +1.38693467336683418090e+000
  +1.40703517587939708200e+000
  +1.42713567839195976106e+000
  +1.44723618090452266216e+000
  +1.46733668341708534122e+000
  +1.48743718592964824232e+000
  +1.50753768844221114342e+000
  +1.52763819095477382248e+000
  +1.54773869346733672359e+000
  +1.56783919597989940264e+000
  +1.58793969849246230375e+000
  +1.60804020100502520485e+000
  +1.62814070351758788391e+000
  +1.64824120603015078501e+000
  +1.66834170854271346407e+000
  +1.68844221105527636517e+000
  +1.70854271356783926628e+000
  +1.72864321608040194533e+000
  +1.74874371859296484644e+000
  +1.76884422110552774754e+000
  +1.78894472361809042660e+000
  +1.80904522613065332770e+000
  +1.82914572864321600676e+000
  +1.84924623115577890786e+000
  +1.86934673366834180896e+000
  +1.88944723618090448802e+000
  +1.90954773869346738913e+000
  +1.92964824120603006818e+000
  +1.94974874371859296929e+000
  +1.96984924623115587039e+000
  +1.98994974874371854945e+000
  +2.01005025125628122851e+000
  +2.03015075376884412961e+000
  +2.05025125628140703071e+000
  +2.07035175879396993182e+000
  +2.09045226130653283292e+000
  +2.11055276381909528993e+000
  +2.13065326633165819104e+000
  +2.15075376884422109214e+000
  +2.17085427135678399324e+000
  +2.19095477386934689434e+000
  +2.21105527638190935136e+000
  +2.23115577889447225246e+000
  +2.25125628140703515356e+000
  +2.27135678391959805467e+000
  +2.29145728643216095577e+000
  +2.31155778894472341278e+000
  +2.33165829145728631389e+000
  +2.35175879396984921499e+000
  +2.37185929648241211609e+000
  +2.39195979899497501719e+000
  +2.41206030150753747421e+000
  +2.43216080402010037531e+000
  +2.45226130653266327641e+000
  +2.47236180904522617752e+000
  +2.49246231155778907862e+000
  +2.51256281407035197972e+000
  +2.53266331658291443674e+000
  +2.55276381909547733784e+000
  +2.57286432160804023894e+000
  +2.59296482412060314005e+000
  +2.61306532663316604115e+000
  +2.63316582914572849816e+000
  +2.65326633165829139926e+000
  +2.67336683417085430037e+000
  +2.69346733668341720147e+000
  +2.71356783919598010257e+000
  +2.73366834170854255959e+000
  +2.75376884422110546069e+000
  +2.77386934673366836179e+000
  +2.79396984924623126290e+000
  +2.81407035175879416400e+000
  +2.83417085427135662101e+000
  +2.85427135678391952212e+000
  +2.87437185929648242322e+000
  +2.89447236180904532432e+000
  +2.91457286432160822542e+000
  +2.93467336683417068244e+000
  +2.95477386934673358354e+000
  +2.97487437185929648464e+000
  +2.99497487437185938575e+000
  +3.01507537688442228685e+000
  +3.03517587939698474386e+000
  +3.05527638190954764497e+000
  +3.07537688442211054607e+000
  +3.09547738693467344717e+000
  +3.11557788944723634827e+000
  +3.13567839195979880529e+000
  +3.15577889447236170639e+000
  +3.17587939698492460749e+000
  +3.19597989949748750860e+000
  +3.21608040201005040970e+000
  +3.23618090452261286671e+000
  +3.25628140703517576782e+000
  +3.27638190954773866892e+000
  +3.29648241206030157002e+000
  +3.31658291457286447113e+000
  +3.33668341708542692814e+000
  +3.35678391959798982924e+000
  +3.37688442211055273035e+000
  +3.39698492462311563145e+000
  +3.41708542713567853255e+000
  +3.43718592964824098956e+000
  +3.45728643216080389067e+000
  +3.47738693467336679177e+000
  +3.49748743718592969287e+000
  +3.51758793969849259398e+000
  +3.53768844221105549508e+000
  +3.55778894472361795209e+000
  +3.57788944723618085320e+000
  +3.59798994974874375430e+000
  +3.61809045226130665540e+000
  +3.63819095477386955650e+000
  +3.65829145728643201352e+000
  +3.67839195979899491462e+000
  +3.69849246231155781572e+000
  +3.71859296482412071683e+000
  +3.73869346733668361793e+000
  +3.75879396984924607494e+000
  +3.77889447236180897605e+000
  +3.79899497487437187715e+000
  +3.81909547738693477825e+000
  +3.83919597989949767936e+000
  +3.85929648241206013637e+000
  +3.87939698492462303747e+000
  +3.89949748743718593857e+000
  +3.91959798994974883968e+000
  +3.93969849246231174078e+000
  +3.95979899497487419779e+000
  +3.97989949748743709890e+000
  +4.00000000000000000000e+000
</indep>
<dep VR1.Vt time>
  +1.19999999270703483489e-007
  +1.20000095193972811103e-007
  +1.19999949532711980282e-007
  +1.19999965519923534885e-007
  +1.20000095193972811103e-007
  +1.20000059666836023098e-007
  +1.19999967296280374285e-007
  +1.19999988612562447088e-007
  +1.20000024139699235093e-007
  +1.20000091641259132302e-007
  +1.20000004599774001690e-007
  +1.19999969072637213685e-007
  +1.19999814529592185863e-007
  +1.20000001047060322890e-007
  +1.19999846504015295068e-007
  +1.19999914005575192277e-007
  +1.19999976178064571286e-007
  +1.19999945979998301482e-007
  +1.19999976178064571286e-007
  +1.19999945979998301482e-007
  +1.20000080983118095901e-007
  +1.19999821635019543464e-007
  +1.20000008152487680491e-007
  +1.19999853609442652669e-007
  +1.19999869596654207271e-007
  +1.19999938874570943881e-007
  +1.20000015257915038092e-007
  +1.19999857162156331469e-007
  +1.19999995717989804689e-007
  +1.19999960190853016684e-007
  +1.19999873149367886072e-007
  +1.19999940650927783281e-007
  +1.19999956638139337883e-007
  +1.20000024139699235093e-007
  +1.19999937098214104481e-007
  +1.20000024139699235093e-007
  +1.19999864267583689070e-007
  +1.20000004599774001690e-007
  +1.19999969072637213685e-007
  +1.19999880254795243673e-007
  +1.20000020586985556292e-007
  +1.19999985059848768287e-007
  +1.20000001047060322890e-007
  +1.19999912229218352877e-007
  +1.20000001047060322890e-007
  +1.19999965519923534885e-007
  +1.19999929992786746880e-007
  +1.20000017034271877492e-007
  +1.19999857162156331469e-007
  +1.19999997494346644089e-007
  +1.18797846798115465106e+001
  +1.11777575520181819968e+001
  +1.05172032808028728113e+001
  +9.89568474132447306602e+000
  +9.31089510064186498539e+000
  +8.76066384907422524009e+000
  +8.24294874412075273540e+000
  +7.75582823045790181737e+000
  +7.29749430788000186254e+000
  +6.86624582071190836530e+000
  +6.46048214378669261038e+000
  +6.07869724155305579671e+000
  +5.71947407826234410777e+000
  +5.38147935848787106750e+000
  +5.06345857845544422560e+000
  +4.76423136981763839515e+000
  +4.48268711858964774564e+000
  +4.21778084298594979629e+000
  +3.96852931485798388067e+000
  +3.73400741033704530736e+000
  +3.51334467613751488813e+000
  +3.30572209877581801862e+000
  +3.11036906471372676108e+000
  +2.92656050014331015063e+000
  +2.75361417979745137785e+000
  +2.59088819479737164642e+000
  +2.43777857013873822112e+000
  +2.29371702297344315369e+000
  +2.15816885336667008133e+000
  +2.03063095970052742700e+000
  +1.91062997135827861150e+000
  +1.79772049175833781298e+000
  +1.69148344521693538844e+000
  +1.59152452150362822003e+000
  +1.49747271231643486189e+000
  +1.40897893424460685097e+000
  +1.32571473310798304546e+000
  +1.24737106486394955240e+000
  +1.17365714855722957921e+000
  +1.10429938705506858199e+000
  +1.03904035156203522483e+000
  +9.77637826145349109197e-001
  +9.19863908724374734760e-001
  +8.65504165187533147652e-001
  +8.14356833497015819567e-001
  +7.66232074827267739536e-001
  +7.20951268957763846679e-001
  +6.78346351304833894424e-001
  +6.38259189131878512669e-001
  +6.00540994622698276473e-001
  +5.65051772639502680740e-001
  +5.31659801115893171364e-001
  +5.00241142156236606731e-001
  +4.70679182026830622565e-001
  +4.42864198331481218052e-001
  +4.16692952765023272299e-001
  +3.92068307933237880647e-001
  +3.68898866816965154136e-001
  +3.47098633542229584314e-001
  +3.26586694197300686504e-001
  +3.07286916512002628021e-001
  +2.89127667284599543240e-001
  +2.72041546507460429982e-001
  +2.55965137204677228855e-001
  +2.40838770053134143545e-001
  +2.26606301913394203584e-001
  +2.13214907448395052381e-001
  +2.00614883056527165683e-001
  +1.88759462391366705791e-001
  +1.77604642783348865009e-001
  +1.67109021919124051125e-001
  +1.57233644172416781037e-001
  +1.47941856016026995757e-001
  +1.39199169978319575725e-001
  +1.30973136639261800163e-001
  +1.23233224190909332330e-001
  +1.15950705115315313987e-001
  +1.09098549559255783570e-001
  +1.02651325010021388096e-001
  +9.65851018999094451667e-002
  +9.08773647890582375597e-002
  +8.55069287969692226614e-002
  +8.04538609725429093578e-002
  +7.56994063107865183815e-002
  +7.12259181415942216331e-002
  +6.70167926322323276311e-002
  +6.30564071604273745919e-002
  +5.93300623293220447119e-002
  +5.58239274090823328622e-002
  +5.25249890026552868072e-002
  +4.94210027451454370073e-002
  +4.65004478575370278071e-002
  +4.37524843860825005115e-002
  +4.11669129686482587749e-002
  +3.87341369786841915879e-002
  +3.64451269063115687596e-002
  +3.42913868443256372731e-002
  +3.22649229547214075331e-002
  +3.03582137987041290883e-002
  +2.85641824200595813299e-002
  +2.68761700782695241163e-002
  +2.52879115338797873236e-002
  +2.37935117943897031512e-002
  +2.23874242343532862953e-002
  +2.10644300084818179852e-002
  +1.98196186813380768876e-002
  +1.86483700017267932381e-002
  +1.75463367541350313827e-002
  +1.65094286235741398439e-002
  +1.55337970139354641236e-002
  +1.46158207635117744910e-002
  +1.37520927046658643367e-002
  +1.29394070177611779371e-002
  +1.21747473324173779985e-002
  +1.14552755319269877060e-002
  +1.07783212192798620588e-002
  +1.01413718056973228138e-002
  +9.54206318488846384762e-003
  +8.97817095841532339384e-003
  +8.44760217959871113902e-003
  +7.94838758532132386159e-003
  +7.47867428689585889146e-003
  +7.03671889286915444583e-003
  +6.62088103823730515091e-003
  +6.22961729605437958962e-003
  +5.86147544883722400322e-003
  +5.51508909850400956543e-003
  +5.18917259484071632242e-003
  +4.88251626367198522660e-003
  +4.59398191702528949087e-003
  +4.32249862862375475170e-003
  +4.06705875902806622546e-003
  +3.82671421567424034291e-003
  +3.60057293392604567395e-003
  +3.38779556608112498647e-003
  +3.18759236604167391083e-003
  +2.99922025808680228764e-003
  +2.82198007886704481384e-003
  +2.65521398238434099340e-003
  +2.49830299832583258013e-003
  +2.35066473468893743018e-003
  +2.21175121617075889219e-003
  +2.08104685029878453198e-003
  +1.95806651375392661366e-003
  +1.84235375178314108105e-003
  +1.73347908401847989983e-003
  +1.63103841041449060603e-003
  +1.53465151138741564413e-003
  +1.44396063658928128053e-003
  +1.35862917707899565067e-003
</dep>
<dep VC1.Vt time>
  -1.20000000000000000000e+001
  -1.19999999926907765513e+001
  -1.19999999853815033646e+001
  -1.19999999780722337306e+001
  -1.19999999707629640966e+001
  -1.19999999634536926862e+001
  -1.19999999561444212759e+001
  -1.19999999488351498655e+001
  -1.19999999415258731261e+001
  -1.19999999342166052685e+001
  -1.19999999269073320818e+001
  -1.19999999195980606714e+001
  -1.19999999122887910374e+001
  -1.19999999049795214034e+001
  -1.19999998976702517695e+001
  -1.19999998903609839118e+001
  -1.19999998830517178305e+001
  -1.19999998757424446438e+001
  -1.19999998684331696808e+001
  -1.19999998611238964941e+001
  -1.19999998538146250837e+001
  -1.19999998465053518970e+001
  -1.19999998391960822630e+001
  -1.19999998318868126290e+001
  -1.19999998245775429950e+001
  -1.19999998172682751374e+001
  -1.19999998099590037270e+001
  -1.19999998026497358694e+001
  -1.19999997953404626827e+001
  -1.19999997880311912724e+001
  -1.19999997807219180856e+001
  -1.19999997734126502280e+001
  -1.19999997661033805940e+001
  -1.19999997587941127364e+001
  -1.19999997514848395497e+001
  -1.19999997441755645866e+001
  -1.19999997368662967290e+001
  -1.19999997295570235423e+001
  -1.19999997222477521319e+001
  -1.19999997149384789452e+001
  -1.19999997076292057585e+001
  -1.19999997003199343482e+001
  -1.19999996930106647142e+001
  -1.19999996857013915275e+001
  -1.19999996783921165644e+001
  -1.19999996710828451540e+001
  -1.19999996637735737437e+001
  -1.19999996564642987806e+001
  -1.19999996491550309230e+001
  -1.19999996418457577363e+001
  -1.18797846798115465106e+001
  -1.11777575520181819968e+001
  -1.05172032808028728113e+001
  -9.89568474132447306602e+000
  -9.31089510064186498539e+000
  -8.76066384907422524009e+000
  -8.24294874412075273540e+000
  -7.75582823045790181737e+000
  -7.29749430788000186254e+000
  -6.86624582071190836530e+000
  -6.46048214378669261038e+000
  -6.07869724155305579671e+000
  -5.71947407826234410777e+000
  -5.38147935848787106750e+000
  -5.06345857845544422560e+000
  -4.76423136981763839515e+000
  -4.48268711858964774564e+000
  -4.21778084298594979629e+000
  -3.96852931485798388067e+000
  -3.73400741033704530736e+000
  -3.51334467613751488813e+000
  -3.30572209877581801862e+000
  -3.11036906471372676108e+000
  -2.92656050014331015063e+000
  -2.75361417979745137785e+000
  -2.59088819479737164642e+000
  -2.43777857013873822112e+000
  -2.29371702297344315369e+000
  -2.15816885336667008133e+000
  -2.03063095970052742700e+000
  -1.91062997135827861150e+000
  -1.79772049175833781298e+000
  -1.69148344521693538844e+000
  -1.59152452150362822003e+000
  -1.49747271231643486189e+000
  -1.40897893424460685097e+000
  -1.32571473310798304546e+000
  -1.24737106486394955240e+000
  -1.17365714855722957921e+000
  -1.10429938705506858199e+000
  -1.03904035156203522483e+000
  -9.77637826145349109197e-001
  -9.19863908724374734760e-001
  -8.65504165187533147652e-001
  -8.14356833497015819567e-001
  -7.66232074827267739536e-001
  -7.20951268957763846679e-001
  -6.78346351304833894424e-001
  -6.38259189131878512669e-001
  -6.00540994622698276473e-001
  -5.65051772639502680740e-001
  -5.31659801115893171364e-001
  -5.00241142156236606731e-001
  -4.70679182026830622565e-001
  -4.42864198331481218052e-001
  -4.16692952765023272299e-001
  -3.92068307933237880647e-001
  -3.68898866816965154136e-001
  -3.47098633542229584314e-001
  -3.26586694197300686504e-001
  -3.07286916512002628021e-001
  -2.89127667284599543240e-001
  -2.72041546507460429982e-001
  -2.55965137204677228855e-001
  -2.40838770053134143545e-001
  -2.26606301913394203584e-001
  -2.13214907448395052381e-001
  -2.00614883056527165683e-001
  -1.88759462391366705791e-001
  -1.77604642783348865009e-001
  -1.67109021919124051125e-001
  -1.57233644172416781037e-001
  -1.47941856016026995757e-001
  -1.39199169978319575725e-001
  -1.30973136639261800163e-001
  -1.23233224190909332330e-001
  -1.15950705115315313987e-001
  -1.09098549559255783570e-001
  -1.02651325010021388096e-001
  -9.65851018999094451667e-002
  -9.08773647890582375597e-002
  -8.55069287969692226614e-002
  -8.04538609725429093578e-002
  -7.56994063107865183815e-002
  -7.12259181415942216331e-002
  -6.70167926322323276311e-002
  -6.30564071604273745919e-002
  -5.93300623293220447119e-002
  -5.58239274090823328622e-002
  -5.25249890026552868072e-002
  -4.94210027451454370073e-002
  -4.65004478575370278071e-002
  -4.37524843860825005115e-002
  -4.11669129686482587749e-002
  -3.87341369786841915879e-002
  -3.64451269063115687596e-002
  -3.42913868443256372731e-002
  -3.22649229547214075331e-002
  -3.03582137987041290883e-002
  -2.85641824200595813299e-002
  -2.68761700782695241163e-002
  -2.52879115338797873236e-002
  -2.37935117943897031512e-002
  -2.23874242343532862953e-002
  -2.10644300084818179852e-002
  -1.98196186813380768876e-002
  -1.86483700017267932381e-002
  -1.75463367541350313827e-002
  -1.65094286235741398439e-002
  -1.55337970139354641236e-002
  -1.46158207635117744910e-002
  -1.37520927046658643367e-002
  -1.29394070177611779371e-002
  -1.21747473324173779985e-002
  -1.14552755319269877060e-002
  -1.07783212192798620588e-002
  -1.01413718056973228138e-002
  -9.54206318488846384762e-003
  -8.97817095841532339384e-003
  -8.44760217959871113902e-003
  -7.94838758532132386159e-003
  -7.47867428689585889146e-003
  -7.03671889286915444583e-003
  -6.62088103823730515091e-003
  -6.22961729605437958962e-003
  -5.86147544883722400322e-003
  -5.51508909850400956543e-003
  -5.18917259484071632242e-003
  -4.88251626367198522660e-003
  -4.59398191702528949087e-003
  -4.32249862862375475170e-003
  -4.06705875902806622546e-003
  -3.82671421567424034291e-003
  -3.60057293392604567395e-003
  -3.38779556608112498647e-003
  -3.18759236604167391083e-003
  -2.99922025808680228764e-003
  -2.82198007886704481384e-003
  -2.65521398238434099340e-003
  -2.49830299832583258013e-003
  -2.35066473468893743018e-003
  -2.21175121617075889219e-003
  -2.08104685029878453198e-003
  -1.95806651375392661366e-003
  -1.84235375178314108105e-003
  -1.73347908401847989983e-003
  -1.63103841041449060603e-003
  -1.53465151138741564413e-003
  -1.44396063658928128053e-003
  -1.35862917707899565067e-003
</dep>
<dep It.It time>
  +1.19999998800000027590e-011
  +1.19999998726906342009e-011
  +1.19999998653815047496e-011
  +1.19999998580722202020e-011
  +1.19999998507628193322e-011
  +1.19999998434535848678e-011
  +1.19999998361444053333e-011
  +1.19999998288351127078e-011
  +1.19999998215258006952e-011
  +1.19999998142164644488e-011
  +1.19999998069072800676e-011
  +1.19999997995980439877e-011
  +1.19999997922889290767e-011
  +1.19999997849794732769e-011
  +1.19999997776703599815e-011
  +1.19999997703610237351e-011
  +1.19999997630516939511e-011
  +1.19999997557424530243e-011
  +1.19999997484331458585e-011
  +1.19999997411239033162e-011
  +1.19999997338144975996e-011
  +1.19999997265054828550e-011
  +1.19999997191960270552e-011
  +1.19999997118869121442e-011
  +1.19999997045776259811e-011
  +1.19999996972682897347e-011
  +1.19999996899589405636e-011
  +1.19999996826498321150e-011
  +1.19999996753404199360e-011
  +1.19999996680311838560e-011
  +1.19999996607219994748e-011
  +1.19999996534126632284e-011
  +1.19999996461033770653e-011
  +1.19999996387940424345e-011
  +1.19999996314848564377e-011
  +1.19999996241754943419e-011
  +1.19999996168663875089e-011
  +1.19999996095569737143e-011
  +1.19999996022477376343e-011
  +1.19999995949385532531e-011
  +1.19999995876291394586e-011
